"Freq [GHz]","Phi [deg]","Theta [deg]","re(rEX) [V]","im(rEX) [V]"
2.5,90,-180,-1.68871121958346,3.65046797206577
2.5,90,-179.9,-1.8675476227495,3.56086967776839
2.5,90,-179.8,-2.04167745235499,3.46247754473661
2.5,90,-179.7,-2.2106613221586,3.35553833004509
2.5,90,-179.6,-2.37407306531708,3.2403214930653
2.5,90,-179.5,-2.5315009829506,3.11711844624716
2.5,90,-179.4,-2.68254904431035,2.98624172983593
2.5,90,-179.3,-2.82683803325293,2.84802411424449
2.5,90,-179.2,-2.96400663607651,2.70281763422591
2.5,90,-179.1,-3.09371246616313,2.55099255937832
2.5,90,-179,-3.21563302129405,2.3929363058596
2.5,90,-178.9,-3.32946656995558,2.22905229449313
2.5,90,-178.8,-3.43493296342814,2.0597587607007
2.5,90,-178.7,-3.53177437094469,1.88548752190701
2.5,90,-178.6,-3.61975593571068,1.70668270821818
2.5,90,-178.5,-3.69866635009333,1.52379946228359
2.5,90,-178.4,-3.76831834880366,1.3373026143082
2.5,90,-178.3,-3.82854911941019,1.14766533818721
2.5,90,-178.2,-3.8792206300279,0.955367794693388
2.5,90,-178.1,-3.92021987451939,0.760895767555794
2.5,90,-178,-3.95145903601948,0.564739298131372
2.5,90,-177.9,-3.97287557004603,0.367391324192521
2.5,90,-177.8,-3.98443220888498,0.169346328132163
2.5,90,-177.7,-3.98611688933161,-0.0289010003679055
2.5,90,-177.6,-3.9779426062303,-0.226857082449161
2.5,90,-177.5,-3.95994719457797,-0.424030744531456
2.5,90,-177.4,-3.93219304324058,-0.619934485015515
2.5,90,-177.3,-3.89476674357448,-0.814085709498099
2.5,90,-177.2,-3.84777867644457,-1.00600793114418
2.5,90,-177.1,-3.79136254128851,-1.19523193324399
2.5,90,-177,-3.7256748309891,-1.38129689137783
2.5,90,-176.9,-3.65089425638856,-1.56375145299874
2.5,90,-176.8,-3.56722112430562,-1.74215477263515
2.5,90,-176.7,-3.47487667290501,-1.91607750129038
2.5,90,-176.6,-3.37410236821804,-2.08510272898099
2.5,90,-176.5,-3.26515916552417,-2.24882687970563
2.5,90,-176.4,-3.14832673918505,-2.40686055845785
2.5,90,-176.3,-3.0239026843689,-2.55882935020189
2.5,90,-176.2,-2.89220169392717,-2.70437457100143
2.5,90,-176.1,-2.75355471348284,-2.84315397173751
2.5,90,-176,-2.60830807757061,-2.97484239506282
2.5,90,-175.9,-2.45682262943537,-3.09913238641781
2.5,90,-175.8,-2.29947282684861,-3.21573476007954
2.5,90,-175.7,-2.13664583605277,-3.32437912132244
2.5,90,-175.6,-1.96874061569033,-3.42481434584426
2.5,90,-175.5,-1.79616699232369,-3.51680901765126
2.5,90,-175.4,-1.61934472890969,-3.60015182660152
2.5,90,-175.3,-1.43870258735842,-3.67465192678113
2.5,90,-175.2,-1.2546773860886,-3.74013925683148
2.5,90,-175.1,-1.06771305329111,-3.79646482326284
2.5,90,-175,-0.878259676432142,-3.84350094768139
2.5,90,-174.9,-0.686772548372816,-3.8811414787264
2.5,90,-174.8,-0.493711210351313,-3.90930196936583
2.5,90,-174.7,-0.299538491972256,-3.92791982003474
2.5,90,-174.6,-0.104719548275987,-3.93695438792633
2.5,90,-174.5,0.0902791060826207,-3.93638706256285
2.5,90,-174.4,0.28499056552552,-3.92622130758829
2.5,90,-174.3,0.478948505074671,-3.90648266853973
2.5,90,-174.2,0.671688154617313,-3.87721874617395
2.5,90,-174.1,0.862747275744091,-3.83849913475374
2.5,90,-174,1.05166714088356,-3.79041532453896
2.5,90,-173.9,1.23799351432084,-3.73308056758275
2.5,90,-173.8,1.42127763453219,-3.66662970580854
2.5,90,-173.7,1.60107719708548,-3.59121896023992
2.5,90,-173.6,1.77695733715934,-3.5070256801768
2.5,90,-173.5,1.94849161052071,-3.41424805105913
2.5,90,-173.4,2.11526297157342,-3.31310475973684
2.5,90,-173.3,2.27686474685857,-3.20383461587075
2.5,90,-173.2,2.43290160214832,-3.08669612822839
2.5,90,-173.1,2.58299050103657,-2.96196703470804
2.5,90,-173,2.7267616526949,-2.82994378502655
2.5,90,-172.9,2.86385944623457,-2.69094097513976
2.5,90,-172.8,2.99394336889771,-2.54529073262976
2.5,90,-172.7,3.11668890510113,-2.39334205248535
2.5,90,-172.6,3.23178841317104,-2.2354600829261
2.5,90,-172.5,3.3389519764475,-2.07202536116559
2.5,90,-172.4,3.43790822529891,-1.90343299928388
2.5,90,-172.3,3.52840512648026,-1.73009182066749
2.5,90,-172.2,3.61021073618907,-1.55242344778724
2.5,90,-172.1,3.68311391312658,-1.37086134240675
2.5,90,-172,3.74692498786016,-1.18584979964843
2.5,90,-171.9,3.80147638480433,-0.99784289768622
2.5,90,-171.8,3.84662319319762,-0.807303405176823
2.5,90,-171.7,3.88224368354641,-0.614701648886803
2.5,90,-171.6,3.90823976613901,-0.420514344309051
2.5,90,-171.5,3.92453738839974,-0.225223392393326
2.5,90,-171.4,3.93108686805432,-0.0293146458334562
2.5,90,-171.3,3.92786315931383,0.166723351347542
2.5,90,-171.2,3.91486604955048,0.362400646890679
2.5,90,-171.1,3.89212028423532,0.557227181791549
2.5,90,-171,3.85967561823071,0.750714105676994
2.5,90,-170.9,3.81760679187799,0.942375101353117
2.5,90,-170.8,3.76601343068854,1.13172771364118
2.5,90,-170.7,3.70501986783236,1.31829467748057
2.5,90,-170.6,3.63477488901784,1.50160524017712
2.5,90,-170.5,3.55545139976573,1.68119647261202
2.5,90,-170.4,3.46724601549707,1.85661456419888
2.5,90,-170.3,3.37037857527238,2.02741609639001
2.5,90,-170.2,3.2650915804368,2.19316928958305
2.5,90,-170.1,3.15164955983678,2.35345521836776
2.5,90,-170,3.03033836367544,2.5078689901795
2.5,90,-169.9,2.90146438846321,2.65602088258697
2.5,90,-169.8,2.76535373589128,2.79753743464031
2.5,90,-169.7,2.62235130880804,2.93206248793395
2.5,90,-169.6,2.47281984780692,3.05925817329983
2.5,90,-169.5,2.31713891223652,3.17880583933438
2.5,90,-169.4,2.15570380971882,3.29040691927535
2.5,90,-169.3,1.9889244785028,3.39378373308149
2.5,90,-169.2,1.81722432719325,3.4886802219203
2.5,90,-169.1,1.64103903656963,3.57486261264004
2.5,90,-169,1.46081532835117,3.65212001018309
2.5,90,-168.9,1.27700970587063,3.72026491628678
2.5,90,-168.8,1.09008717168697,3.77913367321288
2.5,90,-168.7,0.900519927200791,3.82858683164124
2.5,90,-168.6,0.708786059333897,3.86850944225585
2.5,90,-168.5,0.51536821929569,3.89881127093802
2.5,90,-168.4,0.320752298389629,3.91942693785802
2.5,90,-168.3,0.125426105708299,3.93031598112097
2.5,90,-168.2,-0.0701219475669062,3.9314628459717
2.5,90,-168.1,-0.265404152706596,3.92287680089339
2.5,90,-168,-0.45993479244902,3.90459178224502
2.5,90,-167.9,-0.653231410330804,3.8766661693693
2.5,90,-167.8,-0.844816056408274,3.83918249236498
2.5,90,-167.7,-1.03421650568898,3.79224707495364
2.5,90,-167.6,-1.22096744585642,3.73598961507929
2.5,90,-167.5,-1.40461163114437,3.67056270605983
2.5,90,-167.4,-1.58470099949679,3.59614130126066
2.5,90,-167.3,-1.76079775043718,3.51292212538377
2.5,90,-167.2,-1.93247538135694,3.42112303555966
2.5,90,-167.1,-2.09931968022062,3.32098233549513
2.5,90,-167,-2.26092967296746,3.21275804596861
2.5,90,-166.9,-2.41691852416333,3.09672713497779
2.5,90,-166.8,-2.56691438972519,2.97318471083075
2.5,90,-166.7,-2.71056122079367,2.84244318143738
2.5,90,-166.6,-2.84751951806979,2.70483138300057
2.5,90,-166.5,-2.97746703615837,2.56069368123058
2.5,90,-166.4,-3.10009943766698,2.41038904811393
2.5,90,-166.3,-3.2151308970005,2.25429011715945
2.5,90,-166.2,-3.32229465396039,2.09278221992531
2.5,90,-166.1,-3.42134351740859,1.92626240650145
2.5,90,-166,-3.51205031938564,1.75513845248431
2.5,90,-165.9,-3.5942083201814,1.57982785484127
2.5,90,-165.8,-3.66763156494612,1.40075681891739
2.5,90,-165.7,-3.73215519249883,1.21835923869462
2.5,90,-165.6,-3.78763569703957,1.03307567227337
2.5,90,-165.5,-3.83395114350508,0.845352314409208
2.5,90,-165.4,-3.87100133732212,0.65563996780987
2.5,90,-165.3,-3.89870794931322,0.464393014775494
2.5,90,-165.2,-3.91701459649632,0.272068390654814
2.5,90,-165.1,-3.92588687949378,0.0791245604908734
2.5,90,-165,-3.92531237723196,-0.113979499857612
2.5,90,-164.9,-3.91530059956838,-0.30678531690597
2.5,90,-164.8,-3.89588289843528,-0.498835925890178
2.5,90,-164.7,-3.86711233803521,-0.689676869161938
2.5,90,-164.6,-3.82906352457028,-0.878857185552847
2.5,90,-164.5,-3.78183239593244,-1.06593038964541
2.5,90,-164.4,-3.72553597173143,-1.25045543988902
2.5,90,-164.3,-3.66031206398948,-1.43199769448865
2.5,90,-164.2,-3.58631894879184,-1.61012985396913
2.5,90,-164.1,-3.50373499914941,-1.78443288928214
2.5,90,-164,-3.41275827930637,-1.95449695427781
2.5,90,-163.9,-3.31360610071415,-2.11992228130698
2.5,90,-163.8,-3.20651453989231,-2.28032005865899
2.5,90,-163.7,-3.09173791841008,-2.43531328847203
2.5,90,-163.6,-2.96954824524902,-2.58453762368122
2.5,90,-163.5,-2.84023462184682,-2.72764218249787
2.5,90,-163.4,-2.70410261017993,-2.86429033883729
2.5,90,-163.3,-2.56147356430949,-2.99416048704422
2.5,90,-163.2,-2.41268392590121,-3.11694677919554
2.5,90,-163.1,-2.25808448432682,-3.23235983319814
2.5,90,-163,-2.0980396020653,-3.34012740984666
2.5,90,-162.9,-1.93292640624649,-3.43999505695905
2.5,90,-162.8,-1.76313394731275,-3.53172671867515
2.5,90,-162.7,-1.58906232592013,-3.61510530798006
2.5,90,-162.6,-1.41112178935191,-3.68993324050708
2.5,90,-162.5,-1.22973179887774,-3.75603292768052
2.5,90,-162.4,-1.04532006965742,-3.81324722728049
2.5,90,-162.3,-0.858321584955027,-3.86143984955155
2.5,90,-162.2,-0.669177586599704,-3.90049571703182
2.5,90,-162.1,-0.478334543799168,-3.93032127635231
2.5,90,-162,-0.286243102577472,-3.95084476034739
2.5,90,-161.9,-0.0933570182728298,-3.9620163989245
2.5,90,-161.8,0.0998679263143303,-3.96380857726681
2.5,90,-161.7,0.292975014384083,-3.95621594008423
2.5,90,-161.6,0.485507697334197,-3.93925544078536
2.5,90,-161.5,0.677010702690023,-3.91296633461551
2.5,90,-161.4,0.867031144652318,-3.87741011499242
2.5,90,-161.3,1.05511963405175,-3.83267039246945
2.5,90,-161.2,1.24083138441753,-3.77885271596615
2.5,90,-161.1,1.4237273108042,-3.7160843361254
2.5,90,-161,1.60337511797651,-3.64451391088278
2.5,90,-160.9,1.7793503745255,-3.56431115356742
2.5,90,-160.8,1.95123756948487,-3.47566642409022
2.5,90,-160.7,2.1186311480306,-3.37879026401454
2.5,90,-160.6,2.28113652288263,-3.27391287654425
2.5,90,-160.5,2.43837105808328,-3.1612835527011
2.5,90,-160.4,2.58996502190352,-3.04117004519782
2.5,90,-160.3,2.73556250572372,-2.91385789174161
2.5,90,-160.2,2.87482230585218,-2.77964968972316
2.5,90,-160.1,3.00741876537706,-2.63886432445841
2.5,90,-160,3.13304257330039,-2.49183615335017
2.5,90,-159.9,3.25140151836867,-2.33891414852584
2.5,90,-159.8,3.36222119519852,-2.1804610006804
2.5,90,-159.7,3.46524566049147,-2.01685218701344
2.5,90,-159.6,3.56023803733976,-1.84847500629154
2.5,90,-159.5,3.64698106584423,-1.67572758419134
2.5,90,-159.4,3.72527759849149,-1.49901785218723
2.5,90,-159.3,3.79495103897194,-1.31876250333412
2.5,90,-159.2,3.85584572335865,-1.13538592836558
2.5,90,-159.1,3.90782724280889,-0.949319135577367
2.5,90,-159,3.95078270719369,-0.760998657994395
2.5,90,-158.9,3.98462094930198,-0.570865451333632
2.5,90,-158.8,4.0092726695076,-0.379363786262562
2.5,90,-158.7,4.02469052102236,-0.186940138428952
2.5,90,-158.6,4.03084913608881,0.0059579203083851
2.5,90,-158.5,4.0277450936899,0.198882826080727
2.5,90,-158.4,4.01539682956629,0.391388119352551
2.5,90,-158.3,3.99384448953686,0.583029530211132
2.5,90,-158.2,3.9631497273107,0.773366049514422
2.5,90,-158.1,3.92339544815993,0.961960982928412
2.5,90,-158,3.87468549998982,1.14838298501867
2.5,90,-157.9,3.81714431349706,1.33220707069943
2.5,90,-157.8,3.75091649324572,1.5130156014962
2.5,90,-157.7,3.67616636161512,1.69039924423382
2.5,90,-157.6,3.59307745768323,1.86395789992411
2.5,90,-157.5,3.50185199320267,2.0333016007951
2.5,90,-157.4,3.40271026790627,2.19805137357169
2.5,90,-157.3,3.29589004644193,2.35784006728908
2.5,90,-157.2,3.18164589928704,2.51231314408986
2.5,90,-157.1,3.06024851002719,2.66112943162468
2.5,90,-157,2.93198395140577,2.80396183584252
2.5,90,-156.9,2.79715293256091,2.94049801311789
2.5,90,-156.8,2.65607001986214,3.07044100082073
2.5,90,-156.7,2.5090628337461,3.19350980558527
2.5,90,-156.6,2.35647122392653,3.30943994867926
2.5,90,-156.5,2.19864642532009,3.41798396801309
2.5,90,-156.4,2.03595019699009,3.51891187645687
2.5,90,-156.3,1.8687539463608,3.61201157625637
2.5,90,-156.2,1.69743784090309,3.69708922945088
2.5,90,-156.1,1.52238990943302,3.77396958430053
2.5,90,-156,1.34400513510405,3.84249625782635
2.5,90,-155.9,1.16268454210937,3.90253197465284
2.5,90,-155.8,0.978834278045819,3.95395876242144
2.5,90,-155.7,0.79286469382453,3.99667810411334
2.5,90,-155.6,0.605189422948598,4.03061104768263
2.5,90,-155.5,0.416224461913371,4.05569827345561
2.5,90,-155.4,0.226387253424003,4.07190011980056
2.5,90,-155.3,0.0360957740643162,4.07919656761429
2.5,90,-155.2,-0.154232372004319,4.07758718420886
2.5,90,-155.1,-0.344180851787951,4.06709102721336
2.5,90,-155,-0.533335493171865,4.04774650913421
2.5,90,-154.9,-0.721285164165368,4.01961122324197
2.5,90,-154.8,-0.907622640286332,3.98276173147519
2.5,90,-154.7,-1.09194545872774,3.93729331507282
2.5,90,-154.6,-1.27385675797881,3.8833196886666
2.5,90,-154.5,-1.45296610160177,3.82097267858444
2.5,90,-154.4,-1.62889028488642,3.75040186613677
2.5,90,-154.3,-1.80125412312625,3.67177419667894
2.5,90,-154.2,-1.969691220275,3.58527355526641
2.5,90,-154.1,-2.13384471675698,3.49110030974521
2.5,90,-154,-2.29336801521676,3.38947082214828
2.5,90,-153.9,-2.44792548300328,3.28061692930048
2.5,90,-153.8,-2.59719313019436,3.16478539356949
2.5,90,-153.7,-2.74085926197669,3.04223732473847
2.5,90,-153.6,-2.8786251042063,2.91324757401937
2.5,90,-153.5,-3.01020540098813,2.7781041012699
2.5,90,-153.4,-3.13532898312378,2.63710731652964
2.5,90,-153.3,-3.25373930629679,2.49056939704081
2.5,90,-153.2,-3.36519495788193,2.33881358097784
2.5,90,-153.1,-3.46947013129062,2.18217343916792
2.5,90,-153,-3.56635506679287,2.02099212614628
2.5,90,-152.9,-3.6556564577898,1.85562161195465
2.5,90,-152.8,-3.73719782155094,1.68642189615503
2.5,90,-152.7,-3.81081983347586,1.5137602055978
2.5,90,-152.6,-3.87638062399194,1.33801017754912
2.5,90,-152.5,-3.93375603725902,1.1595510298473
2.5,90,-152.4,-3.98283985091703,0.978766719823648
2.5,90,-152.3,-4.02354395618564,0.796045093783931
2.5,90,-152.2,-4.05579849770436,0.611777028907242
2.5,90,-152.1,-4.07955197258762,0.426355569474655
2.5,90,-152,-4.09477128826297,0.240175059391191
2.5,90,-151.9,-4.10144177875911,0.0536302730124685
2.5,90,-151.8,-4.09956717921634,-0.132884453673032
2.5,90,-151.7,-4.08916955850284,-0.318976089419976
2.5,90,-151.6,-4.07028920993589,-0.504253769547091
2.5,90,-151.5,-4.04298450022782,-0.688329651070348
2.5,90,-151.4,-4.00733167690034,-0.870819759003677
2.5,90,-151.3,-3.96342463453829,-1.05134482167987
2.5,90,-151.2,-3.91137464038336,-1.22953109295073
2.5,90,-151.1,-3.85131001989907,-1.40501115914025
2.5,90,-151,-3.78337580307003,-1.57742472865103
2.5,90,-150.9,-3.70773333232982,-1.74641940215678
2.5,90,-150.8,-3.62455983314194,-1.91165142136045
2.5,90,-150.7,-3.53404794838618,-2.07278639435007
2.5,90,-150.6,-3.43640523782849,-2.22949999564881
2.5,90,-150.5,-3.33185364407279,-2.38147863912935
2.5,90,-150.4,-3.22062892651082,-2.52842012204389
2.5,90,-150.3,-3.10298006489642,-2.67003423851295
2.5,90,-150.2,-2.97916863427567,-2.80604336091511
2.5,90,-150.1,-2.84946815310222,-2.93618298772654
2.5,90,-150,-2.71416340645611,-3.06020225647411
2.5,90,-149.9,-2.57354974636732,-3.17786442058509
2.5,90,-149.8,-2.42793237131636,-3.28894728904412
2.5,90,-149.7,-2.27762558704796,-3.39324362789899
2.5,90,-149.6,-2.12295205088719,-3.49056152279165
2.5,90,-149.5,-1.96424200178915,-3.58072470183124
2.5,90,-149.4,-1.80183247838772,-3.66357281826528
2.5,90,-149.3,-1.63606652732845,-3.73896169254986
2.5,90,-149.2,-1.46729240418313,-3.8067635135623
2.5,90,-149.1,-1.2958627692438,-3.86686699884287
2.5,90,-149,-1.12213388048199,-3.91917751389585
2.5,90,-148.9,-0.94646478594135,-3.96361715071843
2.5,90,-148.8,-0.769216517796737,-4.00012476586556
2.5,90,-148.7,-0.59075129027607,-4.02865597849097
2.5,90,-148.6,-0.411431703587479,-4.04918312893538
2.5,90,-148.5,-0.231619955936484,-4.06169519855642
2.5,90,-148.4,-0.0516770656508586,-4.06619769161355
2.5,90,-148.3,0.128037894646765,-4.06271248013348
2.5,90,-148.2,0.307168549959837,-4.05127761278645
2.5,90,-148.1,0.485361959163241,-4.03194708890161
2.5,90,-148,0.662269333900037,-4.00479059883924
2.5,90,-147.9,0.83754673855504,-3.96989323201905
2.5,90,-147.8,1.01085576983651,-3.92735515397706
2.5,90,-147.7,1.18186421460414,-3.87729125388723
2.5,90,-147.6,1.35024668469196,-3.81983076404011
2.5,90,-147.5,1.51568522758758,-3.75511685281647
2.5,90,-147.4,1.67786991194103,-3.68330619273253
2.5,90,-147.3,1.83649938699127,-3.60456850516135
2.5,90,-147.2,1.99128141511013,-3.51908608335591
2.5,90,-147.1,2.14193337677571,-3.42705329541117
2.5,90,-147,2.2881827473964,-3.3286760688062
2.5,90,-146.9,2.4297675455139,-3.22417135816398
2.5,90,-146.8,2.56643675201695,-3.11376659785522
2.5,90,-146.7,2.69795070009795,-2.99769914105487
2.5,90,-146.6,2.82408143577968,-2.87621568683557
2.5,90,-146.5,2.94461304893103,-2.74957169685231
2.5,90,-146.4,3.05934197477538,-2.61803080313796
2.5,90,-146.3,3.16807726597652,-2.48186420848851
2.5,90,-146.2,3.27064083546142,-2.34135008087406
2.5,90,-146.1,3.36686767020769,-2.19677294326342
2.5,90,-146,3.45660601628697,-2.04842306020074
2.5,90,-145.9,3.53971753551149,-1.89659582242021
2.5,90,-145.8,3.61607743408256,-1.7415911307309
2.5,90,-145.7,3.68557456368382,-1.58371278034921
2.5,90,-145.6,3.74811149550148,-1.42326784680131
2.5,90,-145.5,3.80360456768665,-1.26056607446217
2.5,90,-145.4,3.85198390680275,-1.09591926874482
2.5,90,-145.3,3.8931934238235,-0.929640692898607
2.5,90,-145.2,3.92719078526485,-0.762044470324514
2.5,90,-145.1,3.95394736004739,-0.593444993265679
2.5,90,-145,3.97344814269488,-0.424156338683164
2.5,90,-144.9,3.98569165348012,-0.254491692083329
2.5,90,-144.8,3.9906898161314,-0.0847627800201401
2.5,90,-144.7,3.98846781371272,0.0847206880429902
2.5,90,-144.6,3.97906392328742,0.253651567862138
2.5,90,-144.5,3.96252932997071,0.421725817917342
2.5,90,-144.4,3.93892792097048,0.588643025703649
2.5,90,-144.3,3.90833606020848,0.754106922248766
2.5,90,-144.2,3.87084234410699,0.917825884317175
2.5,90,-144.1,3.82654733911853,1.07951342378184
2.5,90,-144,3.77556330156914,1.23888866366079
2.5,90,-143.9,3.71801388037968,1.3956768003284
2.5,90,-143.8,3.65403380322467,1.54960955142393
2.5,90,-143.7,3.58376854668455,1.70042558898759
2.5,90,-143.6,3.50737399094574,1.84787095736154
2.5,90,-143.5,3.42501605960294,1.99169947539887
2.5,90,-143.4,3.33687034512098,2.13167312252671
2.5,90,-143.3,3.2431217205186,2.26756240821316
2.5,90,-143.2,3.14396393784362,2.39914672438987
2.5,90,-143.1,3.03959921401979,2.52621468038423
2.5,90,-143,2.93023780465774,2.64856441991825
2.5,90,-142.9,2.81609756643869,2.76600391973266
2.5,90,-142.8,2.69740350869668,2.87835126940093
2.5,90,-142.7,2.57438733484633,2.9854349319013
2.5,90,-142.6,2.4472869743255,3.08709398452329
2.5,90,-142.5,2.31634610574678,3.18317833969425
2.5,90,-142.4,2.18181367197962,3.27354894532182
2.5,90,-142.3,2.04394338791197,3.3580779642641
2.5,90,-142.2,1.90299324167069,3.43664893255522
2.5,90,-142.1,1.75922499011102,3.50915689603443
2.5,90,-142,1.61290364941567,3.57550852505081
2.5,90,-141.9,1.46429698167709,3.63562220694213
2.5,90,-141.8,1.31367497836688,3.68942811601722
2.5,90,-141.7,1.16130934162799,3.7368682608055
2.5,90,-141.6,1.00747296435518,3.77789650837483
2.5,90,-141.5,0.852439410057926,3.81247858556073
2.5,90,-141.4,0.696482393527353,3.84059205699469
2.5,90,-141.3,0.539875263353093,3.8622262798681
2.5,90,-141.2,0.382890487358835,3.87738233541995
2.5,90,-141.1,0.225799142044361,3.88607293719153
2.5,90,-141,0.0688704071378788,3.88832231614935
2.5,90,-140.9,-0.0876289336246187,3.88416608283767
2.5,90,-140.8,-0.243434984368165,3.87365106678529
2.5,90,-140.7,-0.398287220467079,3.85683513345585
2.5,90,-140.6,-0.551928962323132,3.83378697909763
2.5,90,-140.5,-0.704107838411036,3.80458590391633
2.5,90,-140.4,-0.854576236476471,3.76932156406353
2.5,90,-140.3,-1.00309174178888,3.72809370300201
