"Freq [GHz]","Phi [deg]","Theta [deg]","re(rEX) [V]","im(rEX) [V]"
2.5,90,-180,-1.28253827728427,3.94310896078276
2.5,90,-179.9,-1.59811430965516,3.82553171775131
2.5,90,-179.8,-1.90317363766494,3.68278387179402
2.5,90,-179.7,-2.19571623917331,3.51578675123542
2.5,90,-179.6,-2.47382116547985,3.3256199181051
2.5,90,-179.5,-2.73565900054748,3.11351453377759
2.5,90,-179.4,-2.97950377904874,2.88084574878541
2.5,90,-179.3,-3.20374428722379,2.6291241592641
2.5,90,-179.2,-3.40689467367197,2.35998637837895
2.5,90,-179.1,-3.58760430078785,2.07518477676571
2.5,90,-179,-3.74466677158669,1.77657645145712
2.5,90,-178.9,-3.87702807112758,1.46611148793292
2.5,90,-178.8,-3.98379376662416,1.14582058478015
2.5,90,-178.7,-4.06423521560823,0.817802114956904
2.5,90,-178.6,-4.11779473716306,0.484208701777562
2.5,90,-178.5,-4.14408970724393,0.147233391448374
2.5,90,-178.4,-4.14291554542549,-0.190904492746536
2.5,90,-178.3,-4.11424756702935,-0.52797372671813
2.5,90,-178.2,-4.05824168145499,-0.86174570211673
2.5,90,-178.1,-3.97523392462783,-1.19000899119601
2.5,90,-178,-3.86573882074964,-1.51058386682909
2.5,90,-177.9,-3.73044657594654,-1.82133668386061
2.5,90,-177.8,-3.57021911391488,-2.12019402792195
2.5,90,-177.7,-3.38608497121796,-2.40515653837689
2.5,90,-177.6,-3.1792330774396,-2.67431231321697
2.5,90,-177.5,-2.95100545290254,-2.92584980549482
2.5,90,-177.4,-2.70288886406112,-3.15807012327
2.5,90,-177.3,-2.4365054839271,-3.36939864804273
2.5,90,-177.2,-2.15360261192674,-3.55839589026449
2.5,90,-177.1,-1.85604151437511,-3.72376750471864
2.5,90,-177,-1.54578545322176,-3.86437339335531
2.5,90,-176.9,-1.22488697684008,-3.97923582850764
2.5,90,-176.8,-0.895474552324417,-4.06754653530078
2.5,90,-176.7,-0.559738624001876,-4.12867267844428
2.5,90,-176.6,-0.21991718759727,-4.1621617054489
2.5,90,-176.5,0.121719026335166,-4.16774500558635
2.5,90,-176.4,0.462881662502249,-4.14534035156864
2.5,90,-176.3,0.801280044320375,-4.09505309891982
2.5,90,-176.2,1.1346365682525,-4.01717612629043
2.5,90,-176.1,1.46070208495942,-3.91218850847032
2.5,90,-176,1.77727116229323,-3.7807529225304
2.5,90,-175.9,2.08219712499805,-3.62371179630786
2.5,90,-175.8,2.37340676657083,-3.44208221727675
2.5,90,-175.7,2.64891463007164,-3.23704962865484
2.5,90,-175.6,2.90683675676946,-3.00996034832012
2.5,90,-175.5,3.14540380435956,-2.76231295467947
2.5,90,-175.4,3.36297344007832,-2.49574859198349
2.5,90,-175.3,3.55804191836254,-2.21204025564451
2.5,90,-175.2,3.72925475772252,-1.91308112582901
2.5,90,-175.1,3.8754164371986,-1.60087202489431
2.5,90,-175,3.99549903911427,-1.27750808106098
2.5,90,-174.9,4.08864977178203,-0.945164687002878
2.5,90,-174.8,4.1541973133218,-0.606082847733591
2.5,90,-174.7,4.19165692575805,-0.262554017227326
2.5,90,-174.6,4.20073429702118,0.0830954724161476
2.5,90,-174.5,4.18132807732722,0.428520281812669
2.5,90,-174.4,4.13353108558542,0.771372124811099
2.5,90,-174.3,4.05763017091788,1.10931590627921
2.5,90,-174.2,3.9541047239981,1.44004582348762
2.5,90,-174.1,3.82362384265338,1.76130131699933
2.5,90,-174,3.66704216595484,2.07088275740063
2.5,90,-173.9,3.48539440076325,2.36666675548779
2.5,90,-173.8,3.27988857432955,2.64662098566075
2.5,90,-173.7,3.05189805599452,2.90881841524607
2.5,90,-173.6,2.8029524002123,3.15145083627458
2.5,90,-173.5,2.53472707196513,3.37284160084136
2.5,90,-173.4,2.24903212407288,3.5714574665484
2.5,90,-173.3,1.94779990385535,3.74591946464141
2.5,90,-173.2,1.63307187401847,3.89501271025144
2.5,90,-173.1,1.30698463944304,4.01769508159484
2.5,90,-173,0.971755277697964,4.11310470301554
2.5,90,-172.9,0.629666076531036,4.18056617531007
2.5,90,-172.8,0.28304878626175,4.21959550579467
2.5,90,-172.7,-0.0657315011342588,4.22990369998757
2.5,90,-172.6,-0.414292731420144,4.21139898651122
2.5,90,-172.5,-0.760252408976451,4.16418765679853
2.5,90,-172.4,-1.10124414086863,4.08857351133216
2.5,90,-172.3,-1.43493408542087,3.98505591437929
2.5,90,-172.2,-1.7590371871111,3.85432646942481
2.5,90,-172.1,-2.07133308100633,3.69726433767272
2.5,90,-172,-2.36968155224857,3.51493023199803
2.5,90,-171.9,-2.65203743926239,3.30855912851247
2.5,90,-171.8,-2.91646487336865,3.07955174737524
2.5,90,-171.7,-3.16115075231486,2.82946486356587
2.5,90,-171.6,-3.38441735084338,2.56000051696099
2.5,90,-171.5,-3.58473397776084,2.27299419915975
2.5,90,-171.4,-3.76072759600056,1.97040210201627
2.5,90,-171.3,-3.9111923298315,1.65428751970082
2.5,90,-171.2,-4.03509779159328,1.32680650227677
2.5,90,-171.1,-4.13159616906924,0.990192864196664
2.5,90,-171,-4.20002802377612,0.646742655744549
2.5,90,-170.9,-4.23992675997528,0.298798209255725
2.5,90,-170.8,-4.25102173402537,-0.0512681251088758
2.5,90,-170.7,-4.23323998371731,-0.401070437179775
2.5,90,-170.6,-4.18670656738399,-0.74822579014546
2.5,90,-170.5,-4.1117435127781,-1.09037071113291
2.5,90,-170.4,-4.00886738588184,-1.42517752126214
2.5,90,-170.3,-3.87878549987346,-1.75037038891903
2.5,90,-170.2,-3.7223907943491,-2.06374099234073
2.5,90,-170.1,-3.5407554245092,-2.36316368080544
2.5,90,-170,-3.33512310929134,-2.64661002773538
2.5,90,-169.9,-3.10690029629954,-2.91216267381691
2.5,90,-169.8,-2.85764620977185,-3.15802836378283
2.5,90,-169.7,-2.58906185568698,-3.38255008673216
2.5,90,-169.6,-2.30297806537499,-3.58421823673654
2.5,90,-169.5,-2.00134266561652,-3.76168071793958
2.5,90,-169.4,-1.68620686914471,-3.91375192633377
2.5,90,-169.3,-1.35971098465704,-4.03942054883906
2.5,90,-169.2,-1.02406954987598,-4.13785612913085
2.5,90,-169.1,-0.681555994830087,-4.2084143588128
2.5,90,-169,-0.334486945344377,-4.25064106192006
2.5,90,-168.9,0.0147937212816856,-4.26427485030313
2.5,90,-168.8,0.363930955284987,-4.24924843710525
2.5,90,-168.7,0.710574634705168,-4.20568860523259
2.5,90,-168.6,1.05239557400052,-4.13391483735386
2.5,90,-168.5,1.38710132945905,-4.03443662348028
2.5,90,-168.4,1.71245169200214,-3.90794947149993
2.5,90,-168.3,2.02627376091642,-3.75532965510132
2.5,90,-168.2,2.3264764957339,-3.577627742256
2.5,90,-168.1,2.61106464788044,-3.37606095577769
2.5,90,-168,2.87815197879116,-3.15200442537313
2.5,90,-167.9,3.12597367688923,-2.90698139800352
2.5,90,-167.8,3.35289789211527,-2.64265248022101
2.5,90,-167.7,3.55743631349916,-2.36080399240324
2.5,90,-167.6,3.73825372254772,-2.06333552043011
2.5,90,-167.5,3.89417646291178,-1.75224675530098
2.5,90,-167.4,4.02419977483303,-1.42962371545208
2.5,90,-167.3,4.12749395119693,-1.09762445007234
2.5,90,-167.2,4.20340928056131,-0.758464324526225
2.5,90,-167.1,4.25147975123236,-0.414400991049347
2.5,90,-167,4.27142549925048,-0.0677191491958684
2.5,90,-166.9,4.26315399196562,0.279284798922087
2.5,90,-166.8,4.22675994766184,0.624318093749052
2.5,90,-166.7,4.16252400036863,0.965106859813846
2.5,90,-166.6,4.07091012751426,1.29941114136037
2.5,90,-166.5,3.95256186637322,1.6250396320975
2.5,90,-166.4,3.80829735328261,1.93986400207244
2.5,90,-166.3,3.63910322729455,2.2418327283018
2.5,90,-166.2,3.44612744724802,2.528984340021
2.5,90,-166.1,3.23067107813567,2.79945999420334
2.5,90,-166,2.99417910906667,3.05151530231189
2.5,90,-165.9,2.73823037105205,3.28353133503059
2.5,90,-165.8,2.46452662822462,3.49402473793706
2.5,90,-165.7,2.17488092092845,3.68165689766975
2.5,90,-165.6,1.87120524334526,3.84524210506045
2.5,90,-165.5,1.55549764194713,3.98375466889693
2.5,90,-165.4,1.22982882406613,4.09633494139151
2.5,90,-165.3,0.896328368233584,4.18229422401372
2.5,90,-165.2,0.557170629667099,4.24111853003659
2.5,90,-165.1,0.214560435366082,4.27247118789877
2.5,90,-165,-0.129281336279895,4.27619427724311
2.5,90,-164.9,-0.472132196651217,4.25230889720527
2.5,90,-164.8,-0.811782414913239,4.20101427414268
2.5,90,-164.7,-1.14604922038322,4.12268572346699
2.5,90,-164.6,-1.47279074873764,4.01787148752372
2.5,90,-164.5,-1.78991964410573,3.88728847850802
2.5,90,-164.4,-2.09541623218312,3.73181696217312
2.5,90,-164.3,-2.38734118309957,3.55249422453818
2.5,90,-164.2,-2.66384758684593,3.35050726989967
2.5,90,-164.1,-2.92319236858017,3.12718460416124
2.5,90,-164,-3.16374697605218,2.88398716279063
2.5,90,-163.9,-3.38400727667202,2.62249844756442
2.5,90,-163.8,-3.58260260736287,2.3444139406448
2.5,90,-163.7,-3.75830392624073,2.05152986843085
2.5,90,-163.6,-3.9100310213107,1.74573139102308
2.5,90,-163.5,-4.03685873772273,1.4289802960158
2.5,90,-163.4,-4.13802219163932,1.10330227769202
2.5,90,-163.3,-4.21292094540271,0.770773884510817
2.5,90,-163.2,-4.26112212539343,0.433509219070425
2.5,90,-163.1,-4.28236247071534,0.093646475482977
2.5,90,-163,-4.27654930757586,-0.246665600680143
2.5,90,-162.9,-4.24376045091695,-0.585281245009251
2.5,90,-162.8,-4.18424304145193,-0.920071115396995
2.5,90,-162.7,-4.09841133273795,-1.24893555896164
2.5,90,-162.6,-3.98684344922606,-1.56981762382015
2.5,90,-162.5,-3.85027714234712,-1.88071573704343
2.5,90,-162.4,-3.68960457757833,-2.17969597284209
2.5,90,-162.3,-3.50586619105915,-2.46490383817645
2.5,90,-162.2,-3.30024365966025,-2.73457550652706
2.5,90,-162.1,-3.07405203342662,-2.9870484344827
2.5,90,-162,-2.82873108398891,-3.22077130007366
2.5,90,-161.9,-2.56583592684883,-3.43431320636389
2.5,90,-161.8,-2.287026979367,-3.62637209869557
2.5,90,-161.7,-1.99405931980441,-3.79578234911282
2.5,90,-161.6,-1.68877151587172,-3.94152146685237
2.5,90,-161.5,-1.37307399391261,-4.06271589934133
2.5,90,-161.4,-1.04893702207984,-4.15864589385191
2.5,90,-161.3,-0.718378382643341,-4.22874939579968
2.5,90,-161.2,-0.383450809897915,-4.27262496559629
2.5,90,-161.1,-0.0462292710090578,-4.29003370194948
2.5,90,-161,0.291201832453809,-4.28090016550654
2.5,90,-160.9,0.626761464587502,-4.24531230272843
2.5,90,-160.8,0.95838467961606,-4.18352037582775
2.5,90,-160.7,1.28403519446765,-4.09593491047124
2.5,90,-160.6,1.60171773456645,-3.98312367870473
2.5,90,-160.5,1.90949007973816,-3.84580774017385
2.5,90,-160.4,2.20547473933655,-3.68485657015758
2.5,90,-160.3,2.48787018830401,-3.50128230817488
2.5,90,-160.2,2.75496159886381,-3.29623316593818
2.5,90,-160.1,3.00513100588391,-3.07098603818732
2.5,90,-160,3.2368668476351,-2.82693836441532
2.5,90,-159.9,3.44877282766223,-2.56559929367493
2.5,90,-159.8,3.63957604777822,-2.28858020850343
2.5,90,-159.7,3.80813436674528,-1.99758466751124
2.5,90,-159.6,3.95344294400289,-1.69439782932239
2.5,90,-159.5,4.07463993280958,-1.38087542331964
2.5,90,-159.4,4.17101129235325,-1.05893233502164
2.5,90,-159.3,4.24199469372813,-0.730530875886279
2.5,90,-159.2,4.28718250013893,-0.397668808891318
2.5,90,-159.1,4.30632380724801,-0.0623672023783783
2.5,90,-159,4.29932553519496,0.273341814648047
2.5,90,-158.9,4.26625256945804,0.607427322287576
2.5,90,-158.8,4.20732695336365,0.937871831253843
2.5,90,-158.7,4.12292614064809,1.26268338337384
2.5,90,-158.6,4.01358032200641,1.57990745932263
2.5,90,-158.5,3.87996884499226,1.88763862325325
2.5,90,-158.4,3.72291575193224,2.18403183579967
2.5,90,-158.3,3.54338446565447,2.46731336914832
2.5,90,-158.2,3.34247165777848,2.73579126047059
2.5,90,-158.1,3.1214003390413,2.98786524297204
2.5,90,-158,2.88151221561477,3.22203609712988
2.5,90,-157.9,2.62425935958192,3.43691436832783
2.5,90,-157.8,2.35119524565157,3.63122840105091
2.5,90,-157.7,2.0639652097874,3.80383164403361
2.5,90,-157.6,1.76429638868441,3.95370918524728
2.5,90,-157.5,1.45398720192272,4.07998348033697
2.5,90,-157.4,1.13489644115508,4.1819192430451
2.5,90,-157.3,0.808932032816262,4.25892747126276
2.5,90,-157.2,0.478039542578006,4.31056858759529
2.5,90,-157.1,0.144190491092939,4.3365546786891
2.5,90,-157,-0.19062944852578,4.3367508230063
2.5,90,-156.9,-0.5244323005634,4.31117550222236
2.5,90,-156.8,-0.855239612924498,4.26000009692541
2.5,90,-156.7,-1.18109418911314,4.18354747278129
2.5,90,-156.6,-1.50007165616717,4.08228966876295
2.5,90,-156.5,-1.81029179996031,3.9568447043926
2.5,90,-156.4,-2.10992960090988,3.80797252818013
2.5,90,-156.3,-2.39722590515874,3.63657013452659
2.5,90,-156.2,-2.67049766871311,3.44366588126944
2.5,90,-156.1,-2.92814771480603,3.23041304474461
2.5,90,-156,-3.16867394789814,2.99808265370241
2.5,90,-155.9,-3.39067797120369,2.74805564761132
2.5,90,-155.8,-3.59287305841919,2.48181440879281
2.5,90,-155.7,-3.77409143441102,2.20093372142362
2.5,90,-155.6,-3.9332908239594,1.90707121370355
2.5,90,-155.5,-4.0695602322343,1.6019573423905
2.5,90,-155.4,-4.1821249254619,1.28738498144109
2.5,90,-155.3,-4.27035058520294,0.965198678639986
2.5,90,-155.2,-4.33374661476935,0.637283645850981
2.5,90,-155.1,-4.37196858152604,0.305554549862058
2.5,90,-155,-4.38481978412421,-0.028055828281749
2.5,90,-154.9,-4.37225193905893,-0.361607997059288
2.5,90,-154.8,-4.33436498630407,-0.693167152892398
2.5,90,-154.7,-4.27140601911631,-1.02081450506925
2.5,90,-154.6,-4.18376734838553,-1.34265845979875
2.5,90,-154.5,-4.07198371710599,-1.65684559719772
2.5,90,-154.4,-3.93672868562215,-1.96157137658575
2.5,90,-154.3,-3.77881021322855,-2.25509050743465
2.5,90,-154.2,-3.59916546644945,-2.53572692566237
2.5,90,-154.1,-3.39885488885735,-2.80188331766979
2.5,90,-154,-3.17905557158459,-3.05205013756872
2.5,90,-153.9,-2.94105396771321,-3.28481406641911
2.5,90,-153.8,-2.68623799746807,-3.49886586596513
2.5,90,-153.7,-2.41608859456803,-3.69300758330258
2.5,90,-153.6,-2.13217074718831,-3.86615906710044
2.5,90,-153.5,-1.83612408973166,-4.01736376041184
2.5,90,-153.4,-1.52965310399387,-4.14579373970634
2.5,90,-153.3,-1.21451699030811,-4.25075397451861
2.5,90,-153.2,-0.892519270871564,-4.33168578699435
2.5,90,-153.1,-0.565497188676246,-4.38816949559903
2.5,90,-153,-0.235310966281441,-4.41992623230334
2.5,90,-152.9,0.0961670109182034,-4.42681892763734
2.5,90,-152.8,0.427063022269454,-4.40885246308384
2.5,90,-152.7,0.755512786012318,-4.36617299532469
2.5,90,-152.6,1.07967211652544,-4.29906646183137
2.5,90,-152.5,1.3977274023606,-4.20795628217204
2.5,90,-152.4,1.70790584431097,-4.09340027416022
2.5,90,-152.3,2.0084853946778,-3.95608680856621
2.5,90,-152.2,2.29780434116342,-3.79683023052345
2.5,90,-152.1,2.57427048141527,-3.61656557996209
2.5,90,-152,2.83636983715531,-3.41634264736384
2.5,90,-151.9,3.08267486002561,-3.19731940483733
2.5,90,-151.8,3.31185208474947,-2.9607548559338
2.5,90,-151.7,3.52266918891412,-2.70800135074677
2.5,90,-151.6,3.71400142260691,-2.44049641564364
2.5,90,-151.5,3.88483737525174,-2.15975414945106
2.5,90,-151.4,4.03428405126709,-1.8673562400452
2.5,90,-151.3,4.16157123057544,-1.5649426570735
2.5,90,-151.2,4.26605509450446,-1.25420207794722
2.5,90,-151.1,4.34722110220311,-0.936862105292317
2.5,90,-151,4.4046861073229,-0.61467933472193
2.5,90,-150.9,4.43819970935254,-0.289429332104649
2.5,90,-150.8,4.44764483861777,0.0371034205582031
2.5,90,-150.7,4.43303757853431,0.363135551952465
2.5,90,-150.6,4.39452623320411,0.686894743050147
2.5,90,-150.5,4.33238965284577,1.00662952669252
2.5,90,-150.4,4.24703483382159,1.32061888981617
2.5,90,-150.3,4.13899381414167,1.62718162475914
2.5,90,-150.2,4.0089198892657,1.92468537816579
2.5,90,-150.1,3.85758317676231,2.21155534837852
2.5,90,-150,3.68586556190403,2.48628258484547
2.5,90,-149.9,3.49475505955429,2.74743184595858
2.5,90,-149.8,3.28533963072231,2.9936489748545
2.5,90,-149.7,3.05880049490915,3.22366775602845
2.5,90,-149.6,2.81640498182966,3.43631621911125
2.5,90,-149.5,2.55949896825669,3.63052235981679
2.5,90,-149.4,2.28949894759398,3.80531925185054
2.5,90,-149.3,2.00788378132415,3.95984952746387
2.5,90,-149.2,1.71618618270576,4.09336920830664
2.5,90,-149.1,1.41598398399798,4.20525087225361
2.5,90,-149,1.10889123907121,4.29498614593103
2.5,90,-148.9,0.796549213531436,4.36218751671823
2.5,90,-148.8,0.480617314426004,4.40658946202874
2.5,90,-148.7,0.162764011242493,4.42804889765119
2.5,90,-148.6,-0.155342200759375,4.42654495083847
2.5,90,-148.5,-0.472041744799974,4.40217806764286
2.5,90,-148.4,-0.785692765574244,4.35516846768904
2.5,90,-148.3,-1.094679743662,4.28585396313265
2.5,90,-148.2,-1.39742187579221,4.19468716195035
2.5,90,-148.1,-1.69238117740873,4.08223207893075
2.5,90,-148,-1.97807026621669,3.94916018076654
2.5,90,-147.9,-2.25305978782407,3.79624589447334
2.5,90,-147.8,-2.51598544721828,3.62436161096463
2.5,90,-147.7,-2.76555461260779,3.43447221798494
2.5,90,-147.6,-3.00055246109664,3.22762919873452
2.5,90,-147.5,-3.21984763872486,3.00496433439878
2.5,90,-147.4,-3.42239741057532,2.76768305042135
2.5,90,-147.3,-3.60725227990304,2.51705744772175
2.5,90,-147.2,-3.77356005855688,2.25441906115885
2.5,90,-147.1,-3.92056937432169,1.98115138837464
2.5,90,-147,-4.04763260418595,1.69868223272255
2.5,90,-146.9,-4.15420822591645,1.40847590429099
2.5,90,-146.8,-4.23986258367779,1.11202532308158
2.5,90,-146.7,-4.30427106675067,0.81084406819419
2.5,90,-146.6,-4.34721870365911,0.506458416420187
2.5,90,-146.5,-4.36860017719647,0.200399412952403
2.5,90,-146.4,-4.36841926892513,-0.105804983998305
2.5,90,-146.3,-4.3467877446992,-0.410637644031547
2.5,90,-146.2,-4.30392369560899,-0.712599851527141
2.5,90,-146.1,-4.24014935145515,-1.01021870099424
2.5,90,-146,-4.15588838641802,-1.30205426475957
2.5,90,-145.9,-4.05166273898168,-1.58670649884246
2.5,90,-145.8,-3.92808897039223,-1.86282185490464
2.5,90,-145.7,-3.78587418796758,-2.12909956833905
2.5,90,-145.6,-3.62581156142361,-2.38429759485835
2.5,90,-145.5,-3.44877546203337,-2.62723817034439
2.5,90,-145.4,-3.25571625588645,-2.85681297120806
2.5,90,-145.3,-3.04765478376278,-3.07198785506816
2.5,90,-145.2,-2.82567656117443,-3.27180716417295
2.5,90,-145.1,-2.5909257329635,-3.45539757663917
2.5,90,-145,-2.34459881746839,-3.62197149326021
2.5,90,-144.9,-2.08793827569529,-3.77082995031375
2.5,90,-144.8,-1.82222594114831,-3.90136505147459
2.5,90,-144.7,-1.54877634599502,-4.01306191458483
2.5,90,-144.6,-1.26892997907206,-4.10550013164552
2.5,90,-144.5,-0.984046510875067,-4.17835474295294
2.5,90,-144.4,-0.695498020142818,-4.23139672879577
2.5,90,-144.3,-0.404662255928966,-4.26449302454882
2.5,90,-144.2,-0.112915968185634,-4.2776060673263
2.5,90,-144.1,0.178371661149449,-4.2707928845899
2.5,90,-144,0.467845455742796,-4.24420373722788
2.5,90,-143.9,0.754170521618685,-4.19808033162725
2.5,90,-143.8,1.03603833499504,-4.13275361714125
2.5,90,-143.7,1.31217261466264,-4.04864118710324
2.5,90,-143.6,1.58133495401004,-3.94624430314952
2.5,90,-143.5,1.84233018953051,-3.82614456408273
2.5,90,-143.4,2.09401148445303,-3.68900024183054
2.5,90,-143.3,2.33528510801394,-3.53554230822876
2.5,90,-143.2,2.56511489281267,-3.36657017737978
2.5,90,-143.1,2.78252635465967,-3.1829471892101
2.5,90,-143,2.98661046132572,-2.98559586056629
2.5,90,-142.9,3.17652703861197,-2.77549293075887
2.5,90,-142.8,3.35150780418645,-2.55366422887735
2.5,90,-142.7,3.5108590216481,-2.32117939047
2.5,90,-142.6,3.65396376928446,-2.07914645130566
2.5,90,-142.5,3.78028381996969,-1.82870634591549
2.5,90,-142.4,3.88936113059324,-1.5710273384619
2.5,90,-142.3,3.98081894131556,-1.30729941319183
2.5,90,-142.2,4.0543624867978,-1.03872865132056
2.5,90,-142.1,4.10977932334571,-0.766531620659208
2.5,90,-142,4.14693927763543,-0.491929803649611
2.5,90,-141.9,4.16579402434147,-0.216144088718469
2.5,90,-141.8,4.16637630156324,0.0596106509961106
2.5,90,-141.7,4.14879877443544,0.334130868437714
2.5,90,-141.6,4.11325255870935,0.606229520870991
2.5,90,-141.5,4.06000541739913,0.87474109460542
2.5,90,-141.4,3.98939964479825,1.13852645642005
2.5,90,-141.3,3.9018496532813,1.39647751315045
2.5,90,-141.2,3.79783927931586,1.64752166219297
2.5,90,-141.1,3.67791882601366,1.89062601702372
2.5,90,-141,3.5427018603502,2.1248013932101
2.5,90,-140.9,3.39286178387759,2.34910604179933
2.5,90,-140.8,3.22912819634419,2.56264911840354
2.5,90,-140.7,3.0522830721198,2.76459387774484
2.5,90,-140.6,2.86315676970654,2.95416058487957
2.5,90,-140.5,2.66262389489374,3.13062913577548
2.5,90,-140.4,2.45159903829575,3.29334138136278
2.5,90,-140.3,2.23103240809057,3.44170315061792
2.5,90,-140.2,2.00190537876477,3.57518596965411
