"Freq [GHz]","Phi [deg]","Theta [deg]","re(rEX) [V]","im(rEX) [V]"
2.5,90,-180,-1.55504957962124,3.75335671452223
2.5,90,-179.9,-1.77455151466278,3.65443911646799
2.5,90,-179.8,-1.98793169957882,3.54264012691888
2.5,90,-179.7,-2.19442643672227,3.41832871794592
2.5,90,-179.6,-2.39329352251201,3.28192002188934
2.5,90,-179.5,-2.58381514038621,3.13387414553937
2.5,90,-179.4,-2.76530069457625,2.97469479195517
2.5,90,-179.3,-2.93708957069227,2.80492769221526
2.5,90,-179.2,-3.0985538091275,2.62515885053259
2.5,90,-179.1,-3.24910067740909,2.43601260731649
2.5,90,-179,-3.3881751278507,2.23814952591229
2.5,90,-178.9,-3.51526212719244,2.03226410988904
2.5,90,-178.8,-3.62988884535361,1.81908235886182
2.5,90,-178.7,-3.73162669096349,1.5993591719211
2.5,90,-178.6,-3.82009318197779,1.37387560878505
2.5,90,-178.5,-3.89495364042712,1.14343601978127
2.5,90,-178.4,-3.95592270117329,0.908865056695541
2.5,90,-178.3,-4.00276562546601,0.671004577382256
2.5,90,-178.2,-4.03529941108613,0.430710457813309
2.5,90,-178.1,-4.0533936919277,0.188849325934711
2.5,90,-178,-4.05697142099898,-0.0537047677000846
2.5,90,-177.9,-4.04600933200328,-0.29607372704825
2.5,90,-177.8,-4.02053817588605,-0.537378819580243
2.5,90,-177.7,-3.98064272999212,-0.776744101010037
2.5,90,-177.6,-3.92646157875835,-1.01329983941774
2.5,90,-177.5,-3.85818666616003,-1.24618592236431
2.5,90,-177.4,-3.7760626214236,-1.47455523064494
2.5,90,-177.3,-3.68038586080367,-1.69757696248629
2.5,90,-177.2,-3.57150346948618,-1.91443989226634
2.5,90,-177.1,-3.44981186891495,-2.12435554821112
2.5,90,-177,-3.31575527603036,-2.32656129401011
2.5,90,-176.9,-3.16982396205495,-2.52032329987029
2.5,90,-176.8,-3.01255231954197,-2.7049393892119
2.5,90,-176.7,-2.84451674742104,-2.87974174797033
2.5,90,-176.6,-2.66633336471706,-3.04409948431487
2.5,90,-176.5,-2.47865556447521,-3.19742102751592
2.5,90,-176.4,-2.28217142020109,-3.33915635566968
2.5,90,-176.3,-2.07760095780002,-3.46879904303111
2.5,90,-176.2,-1.86569330658588,-3.58588811878478
2.5,90,-176.1,-1.64722374341006,-3.69000973020458
2.5,90,-176,-1.42299064434471,-3.7807986042958
2.5,90,-175.9,-1.1938123586349,-3.85793930317374
2.5,90,-175.8,-0.960524019809549,-3.92116726960116
2.5,90,-175.7,-0.72397430891968,-3.97026966026875
2.5,90,-175.6,-0.485022184849993,-4.00508596555457
2.5,90,-175.5,-0.244533596530985,-4.02550841562685
2.5,90,-175.4,-0.00337819167106113,-4.03148217385316
2.5,90,-175.3,0.237573963670772,-4.02300531953957
2.5,90,-175.2,0.477455640728155,-4.0001286230378
2.5,90,-175.1,0.715405665397614,-3.962955117221
2.5,90,-175,0.950572084370678,-3.91163947023254
2.5,90,-174.9,1.18211526764617,-3.84638716525356
2.5,90,-174.8,1.40921093568191,-3.76745349380773
2.5,90,-174.7,1.63105310013021,-3.67514236982446
2.5,90,-174.6,1.84685690782605,-3.56980497231034
2.5,90,-174.5,2.05586137845327,-3.45183822503219
2.5,90,-174.4,2.25733202709033,-3.32168312209372
2.5,90,-174.3,2.4505633636318,-3.17982290868914
2.5,90,-174.2,2.63488126188085,-3.02678112664508
2.5,90,-174.1,2.809645191908,-2.86311953461655
2.5,90,-174,2.97425031006492,-2.68943591298574
2.5,90,-173.9,3.12812940181976,-2.50636176363047
2.5,90,-173.8,3.27075467334216,-2.31455991477951
2.5,90,-173.7,3.40163938849882,-2.11472204116762
2.5,90,-173.6,3.52033934862672,-1.90756610964035
2.5,90,-173.5,3.62645421312188,-1.69383376024805
2.5,90,-173.4,3.71962865951523,-1.47428763271477
2.5,90,-173.3,3.79955338230171,-1.24970864797341
2.5,90,-173.2,3.86596593034096,-1.02089325423346
2.5,90,-173.1,3.91865138315719,-0.788650646795306
2.5,90,-173,3.95744286693227,-0.553799970551165
2.5,90,-172.9,3.98222191140816,-0.317167513823913
2.5,90,-172.8,3.99291864929577,-0.0795839018980861
2.5,90,-172.7,3.98951186012647,0.158118701709435
2.5,90,-172.6,3.97202886078362,0.39510937849113
2.5,90,-172.5,3.94054524521542,0.630561215258646
2.5,90,-172.4,3.89518447606239,0.863654034361576
2.5,90,-172.3,3.83611733113423,1.0935770869412
2.5,90,-172.2,3.76356120784652,1.31953170260586
2.5,90,-172.1,3.67777928888187,1.54073388916421
2.5,90,-172,3.5790795724759,1.75641687628288
2.5,90,-171.9,3.46781377085162,1.96583359714361
2.5,90,-171.8,3.34437608043864,2.16825910236796
2.5,90,-171.7,3.20920182762312,2.36299290064586
2.5,90,-171.6,3.06276599388111,2.54936122065944
2.5,90,-171.5,2.90558162425868,2.7267191890263
2.5,90,-171.4,2.73819812328102,2.89445291910519
2.5,90,-171.3,2.56119944249759,3.05198150561471
2.5,90,-171.2,2.37520216401163,3.19875892010926
2.5,90,-171.1,2.18085348449737,3.33427580244501
2.5,90,-171,1.97882910437888,3.45806114345299
2.5,90,-170.9,1.76983102703687,3.56968385411921
2.5,90,-170.8,1.55458527311753,3.66875421666059
2.5,90,-170.7,1.33383951524769,3.75492521297965
2.5,90,-170.6,1.10836063870917,3.82789372608848
2.5,90,-170.5,0.878932233890735,3.88740161021536
2.5,90,-170.4,0.646352026621648,3.93323662544932
2.5,90,-170.3,0.411429252787855,3.9652332329445
2.5,90,-170.2,0.174981983943762,3.98327324689846
2.5,90,-170.1,-0.0621655890468649,3.98728633974147
2.5,90,-170,-0.29918590698202,3.97725039722967
2.5,90,-169.9,-0.535250820215198,3.95319172042552
2.5,90,-169.8,-0.769534385458056,3.91518507187738
2.5,90,-169.7,-1.0012156731572,3.86335356367628
2.5,90,-169.6,-1.22948157680218,3.79786838547408
2.5,90,-169.5,-1.45352961523054,3.71894837099272
2.5,90,-169.4,-1.67257071872262,3.62685940203934
2.5,90,-169.3,-1.88583198943732,3.52191364956498
2.5,90,-169.2,-2.09255942652356,3.40446865186531
2.5,90,-169.1,-2.29202060606635,3.2749262306166
2.5,90,-169,-2.48350730589006,3.13373124606661
2.5,90,-168.9,-2.66633806514761,2.98137019335707
2.5,90,-168.8,-2.83986066858411,2.81836964263375
2.5,90,-168.7,-3.00345454537179,2.64529452630255
2.5,90,-168.6,-3.15653307247966,2.46274627750708
2.5,90,-168.5,-3.29854577266644,2.27136082463062
2.5,90,-168.4,-3.42898039736953,2.07180644735999
2.5,90,-168.3,-3.54736488501201,1.86478150058055
2.5,90,-168.2,-3.65326918556023,1.65101201309842
2.5,90,-168.1,-3.74630694253927,1.43124916890036
2.5,90,-168,-3.8261370241535,1.20626667935423
2.5,90,-167.9,-3.89246489565795,0.976858055427469
2.5,90,-167.8,-3.94504382569078,0.743833789634137
2.5,90,-167.7,-3.98367591989551,0.508018458026656
2.5,90,-167.6,-4.00821297583883,0.270247753104859
2.5,90,-167.5,-4.01855715395795,0.0313654590244258
2.5,90,-167.4,-4.01466146004771,-0.207779619055782
2.5,90,-167.3,-3.99653003561794,-0.446336759252853
2.5,90,-167.2,-3.96421825330969,-0.683456448294087
2.5,90,-167.1,-3.91783261545023,-0.918293515070279
2.5,90,-167,-3.85753045474446,-1.15001025937297
2.5,90,-166.9,-3.78351943703955,-1.3777795626555
2.5,90,-166.8,-3.69605686705167,-1.60078796761047
2.5,90,-166.7,-3.59544879890398,-1.8182387133813
2.5,90,-166.6,-3.48204895428548,-2.02935471332988
2.5,90,-166.5,-3.35625745199391,-2.23338146246458
2.5,90,-166.4,-3.21851935356681,-2.42958986188932
2.5,90,-166.3,-3.06932303062483,-2.61727894796928
2.5,90,-166.2,-2.90919836044466,-2.79577851431508
2.5,90,-166.1,-2.73871475713928,-2.96445161516545
2.5,90,-166,-2.55847904664259,-3.12269693929493
2.5,90,-165.9,-2.3691331944718,-3.26995104418224
2.5,90,-165.8,-2.17135189596346,-3.40569044084616
2.5,90,-165.7,-1.96584003934803,-3.52943352048065
2.5,90,-165.6,-1.75333005263535,-3.64074231479589
2.5,90,-165.5,-1.53457914582575,-3.73922408279292
2.5,90,-165.4,-1.31036646043866,-3.82453271755624
2.5,90,-165.3,-1.08149013875362,-3.89636996754107
2.5,90,-165.2,-0.848764325491328,-3.95448646774786
2.5,90,-165.1,-0.613016114920025,-3.99868257711323
2.5,90,-165,-0.375082456553712,-4.02880901939574
2.5,90,-164.9,-0.135807032715833,-4.0447673257905
2.5,90,-164.8,0.103962878726883,-4.04651007846169
2.5,90,-164.7,0.343379543200384,-4.03404095513106
2.5,90,-164.6,0.581597896683925,-4.00741457579612
2.5,90,-164.5,0.817778648439587,-3.96673615356822
2.5,90,-164.4,1.05109134650848,-3.91216095251312
2.5,90,-164.3,1.28071739359429,-3.84389355623829
2.5,90,-164.2,1.50585300133633,-3.76218695179786
2.5,90,-164.1,1.72571207141466,-3.66734143427324
2.5,90,-164,1.93952899242439,-3.55970333812968
2.5,90,-163.9,2.14656134199705,-3.43966360214482
2.5,90,-163.8,2.34609248423488,-3.30765617534876
2.5,90,-163.7,2.53743405314785,-3.1641562720059
2.5,90,-163.6,2.71992831344168,-3.00967848420378
2.5,90,-163.5,2.89295039069392,-2.84477476108955
2.5,90,-163.4,3.05591036366079,-2.67003226421647
2.5,90,-163.3,3.20825521218932,-2.48607110881814
2.5,90,-163.2,3.34947061494552,-2.293542001131
2.5,90,-163.1,3.47908259191714,-2.09312378212564
2.5,90,-163,3.59665898739879,-1.88552088818938
2.5,90,-162.9,3.701810789912,-1.67146073943073
2.5,90,-162.8,3.79419328625359,-1.45169106634477
2.5,90,-162.7,3.87350704759174,-1.22697718559884
2.5,90,-162.6,3.93949874624337,-0.998099235662706
2.5,90,-162.5,3.99196180245881,-0.765849382927529
2.5,90,-162.4,4.03073686121178,-0.531029008833283
2.5,90,-162.3,4.05571209963973,-0.294445888353888
2.5,90,-162.2,4.06682336639893,-0.0569113699842507
2.5,90,-162.1,4.06405415478863,0.180762432868133
2.5,90,-162,4.04743541205788,0.417765429459646
2.5,90,-161.9,4.01704518783522,0.653292308927327
2.5,90,-161.8,3.97300812511512,0.886545258146947
2.5,90,-161.7,3.91549479769477,1.11673663158015
2.5,90,-161.6,3.84472089838079,1.34309156482468
2.5,90,-161.5,3.76094628267733,1.5648505239632
2.5,90,-161.4,3.66447387302623,1.78127178319721
2.5,90,-161.3,3.55564842899561,1.99163382365537
2.5,90,-161.2,3.43485518910812,2.19523764667189
2.5,90,-161.1,3.30251839026412,2.39140899524193
2.5,90,-161,3.15909967094957,2.57950047777403
2.5,90,-160.9,3.0050963646267,2.75889358867026
2.5,90,-160.8,2.84103968988595,2.92900062067573
2.5,90,-160.7,2.66749284409535,3.08926646434457
2.5,90,-160.6,2.48504900741812,3.23917029037086
2.5,90,-160.5,2.29432926418248,3.37822711092849
2.5,90,-160.4,2.095980448683,3.50598921655317
2.5,90,-160.3,1.89067292257018,3.62204748548151
2.5,90,-160.2,1.67909829104561,3.72603256273844
2.5,90,-160.1,1.46196706512873,3.81761590663105
2.5,90,-160,1.24000627729368,3.89651070066997
2.5,90,-159.9,1.01395705779949,3.96247262929261
2.5,90,-159.8,0.784572179046827,4.01530051611298
2.5,90,-159.7,0.552613575297932,4.05483682376561
2.5,90,-159.6,0.318849845089272,4.0809680147502
2.5,90,-159.5,0.0840537436499971,4.09362477301869
2.5,90,-159.4,-0.151000327382519,4.092782086378
2.5,90,-159.3,-0.385538825692604,4.0784591901113
2.5,90,-159.2,-0.618791562243084,4.05071937254844
2.5,90,-159.1,-0.849994176288479,4.00966964364287
2.5,90,-159,-1.07839058433414,3.95546026793893
2.5,90,-158.9,-1.30323539599233,3.88828416364038
2.5,90,-158.8,-1.52379628976909,3.80837616981815
2.5,90,-158.7,-1.73935634189906,3.7160121841235
2.5,90,-158.6,-1.94921630144687,3.61150817370271
2.5,90,-158.5,-2.15269680500615,3.49521906233864
2.5,90,-158.4,-2.34914052445237,3.3675374971768
2.5,90,-158.3,-2.5379142413482,3.22889249872399
2.5,90,-158.2,-2.71841084175669,3.07974799813927
2.5,90,-158.1,-2.89005122539128,2.92060126616744
2.5,90,-158,-3.05228612322595,2.75198123839236
2.5,90,-157.9,-3.20459781789712,2.57444674181452
2.5,90,-157.8,-3.34650176146284,2.38858462807631
2.5,90,-157.7,-3.477548085335,2.19500781897421
2.5,90,-157.6,-3.59732299747299,1.99435327020492
2.5,90,-157.5,-3.70545006222223,1.78727985958973
2.5,90,-157.4,-3.80159135849567,1.57446620631028
2.5,90,-157.3,-3.88544851233509,1.3566084279617
2.5,90,-157.2,-3.95676360024725,1.13441784248969
2.5,90,-157.1,-4.0153199200907,0.908618622319885
2.5,90,-157,-4.06094262668967,0.679945408211199
2.5,90,-156.9,-4.0934992297717,0.449140890567831
2.5,90,-156.8,-4.11289995226494,0.216953366122899
2.5,90,-156.7,-4.1190979474473,-0.015865721938752
2.5,90,-156.6,-4.11208937391148,-0.248564252223655
2.5,90,-156.5,-4.09191332779636,-0.480391893446595
2.5,90,-156.4,-4.05865163223295,-0.710602564458946
2.5,90,-156.3,-4.0124284844616,-0.938456877592007
2.5,90,-156.2,-3.95340996159253,-1.16322455691438
2.5,90,-156.1,-3.88180338650294,-1.38418682303379
2.5,90,-156,-3.7978565558872,-1.60063873614048
2.5,90,-155.9,-3.70185683299965,-1.81189148909028
2.5,90,-155.8,-3.59413010815063,-2.01727464246401
2.5,90,-155.7,-3.47503963052958,-2.21613829371439
2.5,90,-155.6,-3.34498471543595,-2.40785517272188
2.5,90,-155.5,-3.20439933149113,-2.59182265632797
2.5,90,-155.4,-3.05375057288563,-2.76746469469501
2.5,90,-155.3,-2.8935370221755,-2.93423364265896
2.5,90,-155.2,-2.72428700958502,-3.09161198958973
2.5,90,-155.1,-2.54655677518992,-3.23911398165497
2.5,90,-155,-2.360928540748,-3.37628713079455
2.5,90,-154.9,-2.16800849830918,-3.50271360515106
2.5,90,-154.8,-1.96842472306996,-3.61801149616801
2.5,90,-154.7,-1.76282501823898,-3.7218359580556
2.5,90,-154.6,-1.55187469994748,-3.813880215834
2.5,90,-154.5,-1.33625433046779,-3.8938764386932
2.5,90,-154.4,-1.11665740819766,-3.9615964759518
2.5,90,-154.3,-0.893788023020621,-4.01685245345489
2.5,90,-154.2,-0.668358485767557,-4.05949722881725
2.5,90,-154.1,-0.441086940578236,-4.08942470449131
2.5,90,-154,-0.212694968993929,-4.10656999821596
2.5,90,-153.9,0.0160948053951168,-4.11090947097856
2.5,90,-153.8,0.244561102973502,-4.10246061319641
2.5,90,-153.7,0.471986356111408,-4.08128179039117
2.5,90,-153.6,0.697659050605654,-4.04747185018801
2.5,90,-153.5,0.920876032165722,-4.00116959301674
2.5,90,-153.4,1.14094476976023,-3.94255310942322
2.5,90,-153.3,1.35718556788539,-3.87183898741167
2.5,90,-153.2,1.5689337200901,-3.78928139373034
2.5,90,-153.1,1.77554159640186,-3.6951710334822
2.5,90,-153,1.97638065763692,-3.58983399288522
2.5,90,-152.9,2.17084338994371,-3.47363047042329
2.5,90,-152.8,2.35834515332311,-3.34695340201489
2.5,90,-152.7,2.53832593828386,-3.2102269861824
2.5,90,-152.6,2.71025202522813,-3.06390511552822
2.5,90,-152.5,2.87361754161754,-2.90846972111261
2.5,90,-152.4,3.02794591243751,-2.74442903658431
2.5,90,-152.3,3.17279119996104,-2.57231578913361
2.5,90,-152.2,3.30773932930294,-2.39268532452227
2.5,90,-152.1,3.432409196753,-2.20611367359274
2.5,90,-152,3.5464536583781,-2.01319556777126
2.5,90,-151.9,3.64956039688423,-1.81454241115698
2.5,90,-151.8,3.74145266523057,-1.61078021683044
2.5,90,-151.7,3.82188990598301,-1.40254751502265
2.5,90,-151.6,3.89066824588338,-1.19049324076013
2.5,90,-151.5,3.9476208655908,-0.975274608543073
2.5,90,-151.4,3.99261824501925,-0.757554981524573
2.5,90,-151.3,4.02556828515058,-0.538001742540839
2.5,90,-151.2,4.04641630764154,-0.317284174194313
2.5,90,-151.1,4.05514493396499,-0.0960713550203622
2.5,90,-151,4.05177384622985,0.124969921431601
2.5,90,-150.9,4.03635943220657,0.345177197989165
2.5,90,-150.8,4.00899431744789,0.563894369349817
2.5,90,-150.7,3.96980678773393,0.78047365556376
2.5,90,-150.6,3.91896010538774,0.994277527670734
2.5,90,-150.5,3.85665172330013,1.20468057994682
2.5,90,-150.4,3.7831124007722,1.41107134351899
2.5,90,-150.3,3.69860522552797,1.61285403642035
2.5,90,-150.2,3.60342454647021,1.80945024548124
2.5,90,-150.1,3.49789482194848,2.00030053578007
2.5,90,-150,3.38236938847939,2.1848659837133
2.5,90,-149.9,3.25722915500871,2.36262963007908
2.5,90,-149.8,3.12288122792804,2.53309784990975
2.5,90,-149.7,2.97975747216226,2.69580163612576
2.5,90,-149.6,2.82831301372435,2.8502977944201
2.5,90,-149.5,2.6690246891923,2.99617004711759
2.5,90,-149.4,2.50238944760435,3.13303004408069
2.5,90,-149.3,2.32892271028693,3.26051827905985
2.5,90,-149.2,2.14915669413262,3.37830491020301
2.5,90,-149.1,1.96363870383099,3.48609048374909
2.5,90,-149,1.77292939852198,3.58360656023482
2.5,90,-148.9,1.57760103829929,3.67061624283507
2.5,90,-148.8,1.37823571592687,3.74691460774495
2.5,90,-148.7,1.17542357906368,3.81232903678436
2.5,90,-148.6,0.96976104820422,3.86671945267306
2.5,90,-148.5,0.761849035448804,3.9099784576786
2.5,90,-148.4,0.552291169113939,3.94203137658457
2.5,90,-148.3,0.341692029077808,3.9628362051621
2.5,90,-148.2,0.13065539763586,3.97238346555203
2.5,90,-148.1,-0.080217469486794,3.97069597017972
2.5,90,-148,-0.290329547455687,3.95782849602972
2.5,90,-147.9,-0.499089717608101,3.93386737130248
2.5,90,-147.8,-0.705914409470318,3.89892997666103
2.5,90,-147.7,-0.910229205436002,3.85316416345231
2.5,90,-147.6,-1.1114704041848,3.79674759145554
2.5,90,-147.5,-1.30908653907952,3.7298869888689
2.5,90,-147.4,-1.50253984794034,3.65281733739725
2.5,90,-147.3,-1.69130769076058,3.5658009854459
2.5,90,-147.2,-1.87488391209577,3.46912669256088
2.5,90,-147.1,-2.05278014502875,3.36310860838371
2.5,90,-147,-2.22452705378648,3.2480851895089
2.5,90,-146.9,-2.38967551226112,3.12441805774559
2.5,90,-146.8,-2.54779771586562,2.99249080339122
2.5,90,-146.7,-2.69848822433693,2.85270773722372
2.5,90,-146.6,-2.84136493328302,2.7054925950118
2.5,90,-146.5,-2.97606997245772,2.55128719842763
2.5,90,-146.4,-3.10227052893634,2.39055007632575
2.5,90,-146.3,-3.21965959355852,2.22375505042235
2.5,90,-146.2,-3.32795662919955,2.05138978947435
2.5,90,-146.1,-3.42690815963,1.87395433611407
2.5,90,-146,-3.51628827792507,1.69195961054446
2.5,90,-145.9,-3.59589907358814,1.50592589534176
2.5,90,-145.8,-3.6655709777607,1.31638130564515
2.5,90,-145.7,-3.7251630260995,1.12386024903749
2.5,90,-145.6,-3.77456303911366,0.9289018794376
2.5,90,-145.5,-3.81368771996857,0.732048549329716
2.5,90,-145.4,-3.8424826699785,0.533844264654285
2.5,90,-145.3,-3.86092232222801,0.334833146669312
2.5,90,-145.2,-3.86900979397993,0.135557905069001
2.5,90,-145.1,-3.86677665874747,-0.0634416733884737
2.5,90,-145,-3.85428263912669,-0.261630216538121
2.5,90,-144.9,-3.83161522170511,-0.458478234600023
2.5,90,-144.8,-3.79888919557974,-0.653463560025708
2.5,90,-144.7,-3.75624611623408,-0.846072755398903
2.5,90,-144.6,-3.70385369673765,-1.03580248548248
2.5,90,-144.5,-3.6419051284417,-1.22216084961044
2.5,90,-144.4,-3.57061833355212,-1.404668670738
2.5,90,-144.3,-3.49023515216122,-1.58286073759618
2.5,90,-144.2,-3.4010204665174,-1.7562869965356
2.5,90,-144.1,-3.30326126549989,-1.92451368980112
2.5,90,-144,-3.19726565244836,-2.08712443714396
2.5,90,-143.9,-3.08336179967091,-2.24372125785468
2.5,90,-143.8,-2.96189685311741,-2.39392553049128
2.5,90,-143.7,-2.8332357908602,-2.53737888777467
2.5,90,-143.6,-2.69776023916609,-2.67374404433518
2.5,90,-143.5,-2.55586725007575,-2.80270555521265
2.5,90,-143.4,-2.40796804452391,-2.92397050324199
2.5,90,-143.3,-2.25448672513978,-3.03726911369243
2.5,90,-143.2,-2.09585896295679,-3.14235529477381
2.5,90,-143.1,-1.93253066233756,-3.23900710287324
2.5,90,-143,-1.76495660847949,-3.32702713164273
2.5,90,-142.9,-1.5935991019121,-3.40624282431783
2.5,90,-142.8,-1.41892658442422,-3.476506708913
2.5,90,-142.7,-1.24141226087127,-3.53769655620454
2.5,90,-142.6,-1.06153272130721,-3.58971546068024
2.5,90,-142.5,-0.879766567861997,-3.63249184490195
2.5,90,-142.4,-0.696593050747255,-3.66597938799323
2.5,90,-142.3,-0.512490717713552,-3.69015687922798
2.5,90,-142.2,-0.327936081209223,-3.70502799795573
2.5,90,-142.1,-0.143402307399328,-3.7106210213534
2.5,90,-142,0.0406420689053254,-3.70698846174255
2.5,90,-141.9,0.223734399482604,-3.69420663545135
2.5,90,-141.8,0.405419144311103,-3.6723751654333
2.5,90,-141.7,0.585249055928597,-3.64161642007726
2.5,90,-141.6,0.762786323075309,-3.60207489085465
2.5,90,-141.5,0.937603670343861,-3.55391651165008
2.5,90,-141.4,1.10928541075276,-3.49732792280814
2.5,90,-141.3,1.27742844836907,-3.43251568310246
2.5,90,-141.2,1.44164322832386,-3.35970543299162
2.5,90,-141.1,1.60155463179203,-3.27914101266978
2.5,90,-141,1.75680281374628,-3.19108353854682
2.5,90,-140.9,1.90704398153739,-3.09581044190366
2.5,90,-140.8,2.05195111260514,-2.99361447356157
2.5,90,-140.7,2.19121460987903,-2.88480267848039
2.5,90,-140.6,2.32454289368642,-2.76969534425905
2.5,90,-140.5,2.45166292924847,-2.64862492755137
2.5,90,-140.4,2.57232068910496,-2.52193496243329
2.5,90,-140.3,2.68628155007249,-2.38997895476136
