"Freq [GHz]","Phi [deg]","Theta [deg]","re(rEX) [V]","im(rEX) [V]"
2.5,90,-180,-2.43002491887991,3.69115359997623
2.5,90,-179.9,-2.79827618701071,3.41800842722701
2.5,90,-179.8,-3.1361208546111,3.10829052469536
2.5,90,-179.7,-3.43994351586462,2.76535679860104
2.5,90,-179.6,-3.70649678931422,2.39291988006123
2.5,90,-179.5,-3.9329361480875,1.99500801321947
2.5,90,-179.4,-4.1168503996022,1.57592155051322
2.5,90,-179.3,-4.25628748608118,1.14018652501257
2.5,90,-179.2,-4.34977532779435,0.69250580140786
2.5,90,-179.1,-4.39633748455935,0.237708333437811
2.5,90,-179,-4.39550346709221,-0.21930292395714
2.5,90,-178.9,-4.34731358769187,-0.673603884914649
2.5,90,-178.8,-4.25231829884347,-1.12030241407546
2.5,90,-178.7,-4.11157202798867,-1.55459104560911
2.5,90,-178.6,-3.92662157629061,-1.97179877026452
2.5,90,-178.5,-3.69948920806615,-2.36744133101972
2.5,90,-178.4,-3.43265061503191,-2.73726948412112
2.5,90,-178.3,-3.12900799498155,-3.07731470442312
2.5,90,-178.2,-2.79185853738405,-3.38393184170452
2.5,90,-178.1,-2.42485865808283,-3.65383826776604
2.5,90,-178,-2.0319843712458,-3.88414909223066
2.5,90,-177.9,-1.61748822846999,-4.072408067663
2.5,90,-177.8,-1.18585329201688,-4.21661385143633
2.5,90,-177.7,-0.741744641153518,-4.31524134218716
2.5,90,-177.6,-0.289958937144433,-4.36725786216571
2.5,90,-177.5,0.164627406707238,-4.372134012729
2.5,90,-177.4,0.61711088865739,-4.32984908802336
2.5,90,-177.3,1.0626138456336,-4.2408909909348
2.5,90,-177.2,1.49633707113305,-4.10625065500558
2.5,90,-177.1,1.91361155478215,-3.9274110355728
2.5,90,-177,2.30994878423945,-3.70633079223019
2.5,90,-176.9,2.68108906598461,-3.44542284221159
2.5,90,-176.8,3.02304734331844,-3.14752801980701
2.5,90,-176.7,3.33215601732317,-2.81588412985749
2.5,90,-176.6,3.60510430932283,-2.45409073315026
2.5,90,-176.5,3.83897374117665,-2.06607004760497
2.5,90,-176.4,4.03126935210265,-1.656024391023
2.5,90,-176.3,4.17994631722738,-1.22839062838335
2.5,90,-176.2,4.28343168315428,-0.787792118835477
2.5,90,-176.1,4.34064098900923,-0.338988684289098
2.5,90,-176,4.35098959706194,0.11317485743467
2.5,90,-175.9,4.31439861453622,0.563821036784149
2.5,90,-175.8,4.23129534697802,1.00809238682624
2.5,90,-175.7,4.10260828290568,1.44120383771135
2.5,90,-175.6,3.92975666877597,1.85849428451673
2.5,90,-175.5,3.71463479191297,2.25547677120862
2.5,90,-175.4,3.45959114632902,2.6278867489854
2.5,90,-175.3,3.16740271169002,2.97172788867053
2.5,90,-175.2,2.84124462844384,3.28331495386012
2.5,90,-175.1,2.48465560176502,3.55931327390681
2.5,90,-175,2.10149941293214,3.7967743931752
2.5,90,-174.9,1.69592295855368,3.9931675149199
2.5,90,-174.8,1.27231127523547,4.14640640415972
2.5,90,-174.7,0.835240039443666,4.25487146353552
2.5,90,-174.6,0.389426059114746,4.31742674880533
2.5,90,-174.5,-0.0603237052903935,4.33343174576785
2.5,90,-174.4,-0.509164037311928,4.30274778740855
2.5,90,-174.3,-0.952263716379528,4.22573904831066
2.5,90,-174.2,-1.38485755972438,4.10326811222516
2.5,90,-174.1,-1.8022976920044,3.93668616750972
2.5,90,-174,-2.20010348946983,3.7278179432832
2.5,90,-173.9,-2.57400966062674,3.47894155596882
2.5,90,-173.8,-2.92001194631923,3.19276349079404
2.5,90,-173.7,-3.23440994869053,2.87238899518863
2.5,90,-173.6,-3.51384663031809,2.52128821030173
2.5,90,-173.5,-3.7553440615814,2.14325841251431
2.5,90,-173.4,-3.95633503560514,1.74238277836691
2.5,90,-173.3,-4.11469021547324,1.32298612330077
2.5,90,-173.2,-4.22874052732084,0.88958809663652
2.5,90,-173.1,-4.29729456484779,0.446854341944353
2.5,90,-173,-4.31965082518453,-0.000453846888915588
2.5,90,-172.9,-4.29560465228169,-0.447530828233326
2.5,90,-172.8,-4.22544982147334,-0.889578318859897
2.5,90,-172.7,-4.1099747569506,-1.32185694522913
2.5,90,-172.6,-3.95045343194376,-1.7397370841944
2.5,90,-172.5,-3.74863105881374,-2.13874844612659
2.5,90,-172.4,-3.50670473237811,-2.51462786809947
2.5,90,-172.3,-3.22729924402696,-2.86336480517271
2.5,90,-172.2,-2.91343833594255,-3.18124403369565
2.5,90,-172.1,-2.56851171345992,-3.46488511166609
2.5,90,-172,-2.1962381787715,-3.71127817714833
2.5,90,-171.9,-1.80062529030928,-3.91781570618161
2.5,90,-171.8,-1.38592598878608,-4.08231989605001
2.5,90,-171.7,-0.95659266266848,-4.20306538773406
2.5,90,-171.6,-0.517229152439728,-4.27879709230324
2.5,90,-171.5,-0.072541214130352,-4.30874293936464
2.5,90,-171.4,0.372714021974169,-4.29262142087853
2.5,90,-171.3,0.813779051954264,-4.23064386007733
2.5,90,-171.2,1.245946909046,-4.12351139226384
2.5,90,-171.1,1.66461143772931,-3.9724067012975
2.5,90,-171,2.06531639244447,-3.77898061198348
2.5,90,-170.9,2.44380283626327,-3.54533369374903
2.5,90,-170.8,2.79605433447847,-3.27399308432723
2.5,90,-170.7,3.1183394631095,-2.96788479309934
2.5,90,-170.6,3.40725118247398,-2.63030179172656
2.5,90,-170.5,3.6597426608985,-2.26486824421754
2.5,90,-170.4,3.87315917293979,-1.87550026916327
2.5,90,-170.3,4.0452657397268,-1.46636366308962
2.5,90,-170.2,4.17427022572549,-1.0418290453608
2.5,90,-170.1,4.25884165585846,-0.606424911483553
2.5,90,-170,4.29812356893261,-0.164789102742258
2.5,90,-169.9,4.29174227716509,0.278380784362452
2.5,90,-169.8,4.23980995666697,0.718377515556991
2.5,90,-169.7,4.14292254943897,1.15053432573571
2.5,90,-169.6,4.00215251315378,1.57027447975055
2.5,90,-169.5,3.81903651013887,1.97315975889852
2.5,90,-169.4,3.59555818094176,2.35493735810831
2.5,90,-169.3,3.33412620007203,2.71158469748337
2.5,90,-169.2,3.03754786142065,3.03935167577825
2.5,90,-169.1,2.70899848792018,3.33479992230516
2.5,90,-169,2.35198700373585,3.59483863734729
2.5,90,-168.9,1.97031804721109,3.8167566490125
2.5,90,-168.8,1.56805103850839,3.99825035617798
2.5,90,-168.7,1.14945664702905,4.13744727227687
2.5,90,-168.6,0.718971129940674,4.23292493266851
2.5,90,-168.5,0.281149034226101,4.28372497868299
2.5,90,-168.4,-0.159385229604291,4.28936228358354
2.5,90,-168.3,-0.597986423782818,4.24982903908124
2.5,90,-168.2,-1.03003760656069,4.1655937750813
2.5,90,-168.1,-1.45099882051019,4.03759533945744
2.5,90,-168,-1.85645483045901,3.86723191825451
2.5,90,-167.9,-2.24216140772063,3.65634522924132
2.5,90,-167.8,-2.60408967469371,3.40720007260749
2.5,90,-167.7,-2.93846804641294,3.12245947129092
2.5,90,-167.6,-3.24182133300712,2.80515567941581
2.5,90,-167.5,-3.51100659892597,2.4586573801383
2.5,90,-167.4,-3.74324541087121,2.08663343339514
2.5,90,-167.3,-3.93615214621006,1.69301356922159
2.5,90,-167.2,-4.08775807680318,1.28194645310209
2.5,90,-167.1,-4.1965309891771,0.857755575918538
2.5,90,-167,-4.26139015029485,0.424893442226734
2.5,90,-166.9,-4.28171647830622,-0.0121054533883386
2.5,90,-166.8,-4.25735782904359,-0.448672361401081
2.5,90,-166.7,-4.18862936111042,-0.880252218040692
2.5,90,-166.6,-4.0763089946326,-1.30235128580445
2.5,90,-166.5,-3.92162803054445,-1.71058399342114
2.5,90,-166.4,-3.72625704811474,-2.10071848559883
2.5,90,-166.3,-3.4922872477425,-2.468720408742
2.5,90,-166.2,-3.22220745335359,-2.81079447961144
2.5,90,-166.1,-2.91887703351268,-3.12342340938509
2.5,90,-166,-2.58549504216794,-3.40340378545985
2.5,90,-165.9,-2.22556591834343,-3.64787854726289
2.5,90,-165.8,-1.84286211869315,-3.85436572994162
2.5,90,-165.7,-1.44138408728988,-4.02078319064346
2.5,90,-165.6,-1.02531799304163,-4.14546907573034
2.5,90,-165.5,-0.598991686455536,-4.22719783321906
2.5,90,-165.4,-0.166829343915173,-4.26519162249057
2.5,90,-165.3,0.26669472095486,-4.25912702235745
2.5,90,-165.2,0.69710259297039,-4.20913698838529
2.5,90,-165.1,1.11995915111221,-4.11580806040118
2.5,90,-165,1.53091784128843,-3.98017287085902
2.5,90,-164.9,1.92576535218375,-3.80369805364117
2.5,90,-164.8,2.30046473422852,-3.58826770045013
2.5,90,-164.7,2.65119652045437,-3.33616255768379
2.5,90,-164.6,2.97439743125329,-3.05003520012852
2.5,90,-164.5,3.26679627255377,-2.73288145849617
2.5,90,-164.4,3.52544666834465,-2.38800841537018
2.5,90,-164.3,3.74775630346395,-2.01899931813285
2.5,90,-164.2,3.93151239072741,-1.62967578758941
2.5,90,-164.1,4.0749031173772,-1.22405772699587
2.5,90,-164,4.17653486903831,-0.806321357787282
2.5,90,-163.9,4.23544507440221,-0.380755825304675
2.5,90,-163.8,4.25111056023479,0.0482811699238907
2.5,90,-163.7,4.22345135352639,0.476408252365146
2.5,90,-163.6,4.1528299151672,0.899265297589749
2.5,90,-163.5,4.04004583693948,1.31255794109308
2.5,90,-163.4,3.88632608037418,1.71210121372309
2.5,90,-163.3,3.69331088163738,2.09386185943555
2.5,90,-163.2,3.46303549062574,2.45399890743988
2.5,90,-163.1,3.19790795441062,2.78890209148004
2.5,90,-163,2.90068319465372,3.09522773375586
2.5,90,-162.9,2.57443366523676,3.36993173953484
2.5,90,-162.8,2.22251690973442,3.61029938051979
2.5,90,-162.7,1.848540368204,3.81397158014438
2.5,90,-162.6,1.45632380877107,3.97896745179499
2.5,90,-162.5,1.04985978143087,4.10370288107118
2.5,90,-162.4,0.633272509159975,4.18700498517378
2.5,90,-162.3,0.210775644688907,4.22812232589547
2.5,90,-162.2,-0.213370669967335,4.2267307970179
2.5,90,-162.1,-0.634902999945229,4.18293515172925
2.5,90,-162,-1.04959762905805,4.09726618049583
2.5,90,-161.9,-1.45331295045285,3.97067359418746
2.5,90,-161.8,-1.84203080980797,3.80451471071462
2.5,90,-161.7,-2.21189638814502,3.60053908554308
2.5,90,-161.6,-2.55925622912129,3.36086926678849
2.5,90,-161.5,-2.88069403736766,3.08797789375512
2.5,90,-161.4,-3.17306389977826,2.78466139340087
2.5,90,-161.3,-3.43352061035909,2.45401056193464
2.5,90,-161.2,-3.65954681096658,2.0993783482771
2.5,90,-161.1,-3.84897669466701,1.72434518216494
2.5,90,-161,-4.00001605514571,1.33268221201448
2.5,90,-160.9,-4.11125850418753,0.928312836094611
2.5,90,-160.8,-4.18169771933365,0.515272924929832
2.5,90,-160.7,-4.21073562495985,0.0976701430599094
2.5,90,-160.6,-4.19818645179455,-0.320357215743187
2.5,90,-160.5,-4.14427666186416,-0.734681463983306
2.5,90,-160.4,-4.04964076758957,-1.14122641336372
2.5,90,-160.3,-3.91531311483762,-1.53600751849121
2.5,90,-160.2,-3.74271573974211,-1.91517087545551
2.5,90,-160.1,-3.5336424476541,-2.27503069401142
2.5,90,-160,-3.29023929928247,-2.6121048804458
2.5,90,-159.9,-3.01498172359094,-2.92314839005576
2.5,90,-159.8,-2.71064850899399,-3.20518403325266
2.5,90,-159.7,-2.38029295354851,-3.45553044733968
2.5,90,-159.6,-2.02721148089944,-3.67182697668361
2.5,90,-159.5,-1.65491005147505,-3.85205523697322
2.5,90,-159.4,-1.26706871764937,-3.9945571741677
2.5,90,-159.3,-0.867504687129929,-4.09804946522264
2.5,90,-159.2,-0.460134270579098,-4.16163414534601
2.5,90,-159.1,-0.0489340973538706,-4.18480538499591
2.5,90,-159,0.362098012791153,-4.16745237868788
2.5,90,-158.9,0.768982134128424,-4.10985834653528
2.5,90,-158.8,1.16779489142197,-4.01269568791631
2.5,90,-158.7,1.55470731193613,-3.87701736435776
2.5,90,-158.6,1.92602150776372,-3.70424462528402
2.5,90,-158.5,2.27820583803422,-3.49615122534299
2.5,90,-158.4,2.60792821867375,-3.25484431525784
2.5,90,-158.3,2.9120872686173,-2.98274221924875
2.5,90,-158.2,3.1878410054607,-2.68254934074002
2.5,90,-158.1,3.43263283022167,-2.35722846405509
2.5,90,-158,3.64421456985944,-2.00997074287206
2.5,90,-157.9,3.82066637715773,-1.64416368618288
2.5,90,-157.8,3.96041332019207,-1.26335746918771
2.5,90,-157.7,4.06223852751906,-0.871229909853504
2.5,90,-157.6,4.12529279010315,-0.471550461669419
2.5,90,-157.5,4.14910055647373,-0.0681435793869207
2.5,90,-157.4,4.13356229332429,0.335148182775308
2.5,90,-157.3,4.07895321937195,0.734500981844881
2.5,90,-157.2,3.98591845543793,1.1261460514699
2.5,90,-157.1,3.85546466804803,1.50640527547258
2.5,90,-157,3.68894831705766,1.87172563417283
2.5,90,-156.9,3.48806064956735,2.2187122022906
2.5,90,-156.8,3.25480961241527,2.54415939442541
2.5,90,-156.7,2.99149888354278,2.84508017406262
2.5,90,-156.6,2.70070424827714,3.11873296454129
2.5,90,-156.5,2.38524756983621,3.36264602518753
2.5,90,-156.4,2.04816862394383,3.57463908259317
2.5,90,-156.3,1.69269508517501,3.75284203552544
2.5,90,-156.2,1.32221096740099,3.89571058187804
2.5,90,-156.1,0.940223832361636,4.00203864711724
2.5,90,-156,0.550331088888896,4.07096752551613
2.5,90,-155.9,0.156185710595614,4.10199167778897
2.5,90,-155.8,-0.238538298077884,4.09496116121567
2.5,90,-155.7,-0.630180358683847,4.05008070066674
2.5,90,-155.6,-1.01512737392996,3.96790544079052
2.5,90,-155.5,-1.38984706397316,3.84933345070698
2.5,90,-155.4,-1.75092027688367,3.69559508257479
2.5,90,-155.3,-2.09507197938203,3.50823931408642
2.5,90,-155.2,-2.41920064965201,3.28911723204181
2.5,90,-155.1,-2.72040581219102,3.04036283941563
2.5,90,-155,-2.99601347506583,2.76437139154779
2.5,90,-154.9,-3.2435992523653,2.46377548806136
2.5,90,-154.8,-3.46100897884839,2.14141916567042
2.5,90,-154.7,-3.64637664951063,1.8003302530447
2.5,90,-154.6,-3.79813954377376,1.44369126222856
2.5,90,-154.5,-3.91505042196498,1.07480910167696
2.5,90,-154.4,-3.99618671041229,0.697083903718181
2.5,90,-154.3,-4.04095662056234,0.31397726413429
2.5,90,-154.2,-4.04910217674044,-0.0710198064242006
2.5,90,-154.1,-4.02069915624302,-0.454418920292641
2.5,90,-154,-3.95615397410639,-0.832766044629407
2.5,90,-153.9,-3.85619757286773,-1.20267263827596
2.5,90,-153.8,-3.72187640467048,-1.56084591362672
2.5,90,-153.7,-3.5545406189258,-1.90411795493424
2.5,90,-153.6,-3.35582959319853,-2.22947343826526
2.5,90,-153.5,-3.1276549678295,-2.53407571430042
2.5,90,-153.4,-2.8721813658508,-2.81529103314366
2.5,90,-153.3,-2.59180499881791,-3.07071071009481
2.5,90,-153.2,-2.28913037613332,-3.29817105270827
2.5,90,-153.1,-1.966945350138,-3.49577089220305
2.5,90,-153,-1.6281947415967,-3.66188658616547
2.5,90,-152.9,-1.27595280012958,-3.79518438425323
2.5,90,-152.8,-0.91339476157742,-3.89463007403176
2.5,90,-152.7,-0.543767769215193,-3.95949584989549
2.5,90,-152.6,-0.170361428131592,-3.98936437400877
2.5,90,-152.5,0.203521738009086,-3.9841300240971
2.5,90,-152.4,0.574595661165947,-3.94399734849137
2.5,90,-152.3,0.939619672390234,-3.86947677384626
2.5,90,-152.2,1.2954267601516,-3.76137763519489
2.5,90,-152.1,1.63895089859945,-3.62079862125647
2.5,90,-152,1.96725321242091,-3.44911574998169
2.5,90,-151.9,2.27754675848267,-3.24796801002222
2.5,90,-151.8,2.56721971977058,-3.01924082297436
2.5,90,-151.7,2.83385682408665,-2.76504749872452
2.5,90,-151.6,3.07525881835206,-2.48770887188514
2.5,90,-151.5,3.28945984900612,-2.18973132103669
2.5,90,-151.4,3.47474261968141,-1.87378338419674
2.5,90,-151.3,3.62965121887222,-1.54267119354476
2.5,90,-151.2,3.75300153248637,-1.19931295988858
2.5,90,-151.1,3.84388917876583,-0.84671274263852
2.5,90,-151,3.9016949258715,-0.487933744139197
2.5,90,-150.9,3.92608757523708,-0.126071368117869
2.5,90,-150.8,3.91702431640672,0.235773719243976
2.5,90,-150.7,3.87474858127425,0.594522290458096
2.5,90,-150.6,3.79978544725111,0.947142790330841
2.5,90,-150.5,3.69293465971846,1.2906768795987
2.5,90,-150.4,3.55526136399471,1.62226407537591
2.5,90,-150.3,3.38808465581147,1.93916528613386
2.5,90,-150.2,3.1929640767905,2.23878505148201
2.5,90,-150.1,2.97168419751821,2.51869231104186
2.5,90,-150,2.72623744540248,2.77663954204934
2.5,90,-149.9,2.45880534747022,3.01058012182129
2.5,90,-149.8,2.17173836953127,3.21868378871946
2.5,90,-149.7,1.86753454263101,3.39935009356037
2.5,90,-149.6,1.54881707538614,3.55121975237793
2.5,90,-149.5,1.21831115660889,3.67318383087111
2.5,90,-149.4,0.878820156564304,3.76439071057415
2.5,90,-149.3,0.533201437261125,3.82425080660399
2.5,90,-149.2,0.184341982378517,3.85243902658149
2.5,90,-149.1,-0.164865944197394,3.84889497982633
2.5,90,-149,-0.511548905663802,3.8138209650197
2.5,90,-148.9,-0.852875964973244,3.74767778305543
2.5,90,-148.8,-1.18608172921305,3.65117843960938
2.5,90,-148.7,-1.5084885803238,3.52527981890584
2.5,90,-148.6,-1.81752791655627,3.3711724261177
2.5,90,-148.5,-2.11076024016024,3.19026831068418
2.5,90,-148.4,-2.38589393911074,2.98418729646077
2.5,90,-148.3,-2.6408026240756,2.75474165693173
2.5,90,-148.2,-2.87354089617141,2.50391938464036
2.5,90,-148.1,-3.08235843620662,2.23386621345449
2.5,90,-148,-3.26571232192248,1.94686656023405
2.5,90,-147.9,-3.42227749606463,1.64532355886469
2.5,90,-147.8,-3.55095532480373,1.33173836444132
2.5,90,-147.7,-3.6508802029209,1.0086889086178
2.5,90,-147.6,-3.72142417913336,0.678808288789571
2.5,90,-147.5,-3.7621995918151,0.344762973858006
2.5,90,-147.4,-3.77305972202035,0.0092310078758291
2.5,90,-147.3,-3.75409748701208,-0.325119610074586
2.5,90,-147.2,-3.70564221329765,-0.655652195797369
2.5,90,-147.1,-3.62825454336024,-0.979782131476409
2.5,90,-147,-3.52271954472807,-1.29499693757633
2.5,90,-146.9,-3.39003810363939,-1.59887551223948
2.5,90,-146.8,-3.23141669824152,-1.88910639464019
2.5,90,-146.7,-3.04825565791843,-2.16350491914563
2.5,90,-146.6,-2.84213602589951,-2.42002913842299
2.5,90,-146.5,-2.61480515169298,-2.65679440572049
2.5,90,-146.4,-2.36816114806175,-2.87208651930635
2.5,90,-146.3,-2.1042363541682,-3.06437334536836
2.5,90,-146.2,-1.82517995213297,-3.23231484942161
2.5,90,-146.1,-1.53323988855719,-3.37477148032963
2.5,90,-146,-1.23074425554147,-3.49081086528672
2.5,90,-145.9,-0.92008228740202,-3.57971278841669
2.5,90,-145.8,-0.603685129649128,-3.64097243989521
2.5,90,-145.7,-0.284006535877031,-3.67430193658484
2.5,90,-145.6,0.0364963539409216,-3.67963012896934
2.5,90,-145.5,0.355382003616228,-3.65710072258148
2.5,90,-145.4,0.670243093732542,-3.60706875503483
2.5,90,-145.3,0.978724617406406,-3.53009548209883
2.5,90,-145.2,1.27854132537172,-3.42694173791186
2.5,90,-145.1,1.56749439447538,-3.29855984532735
2.5,90,-145,1.84348720206845,-3.14608416246159
2.5,90,-144.9,2.10454009793924,-2.97082036069673
2.5,90,-144.8,2.34880407528124,-2.77423353763121
2.5,90,-144.7,2.57457325261422,-2.55793527571966
2.5,90,-144.6,2.78029608949121,-2.32366976356783
2.5,90,-144.5,2.96458527012915,-2.0732991020155
2.5,90,-144.4,3.12622620068797,-1.80878792124247
2.5,90,-144.3,3.264184077709,-1.53218743814605
2.5,90,-144.2,3.37760949709087,-1.24561908518166
2.5,90,-144.1,3.46584258485017,-0.951257842723289
2.5,90,-144,3.52841564267863,-0.651315406816533
2.5,90,-143.9,3.56505431288337,-0.348023322985034
2.5,90,-143.8,3.57567727859245,-0.0436162145445841
2.5,90,-143.7,3.56039452604267,0.259684769281822
2.5,90,-143.6,3.5195042062604,0.559688164220433
2.5,90,-143.5,3.45348814342909,0.854247944468865
2.5,90,-143.4,3.36300604664097,1.14127870829215
2.5,90,-143.3,3.24888849049527,1.41877019154849
2.5,90,-143.2,3.11212873807786,1.68480101211167
2.5,90,-143.1,2.95387348719099,1.93755155585825
2.5,90,-143,2.77541262725515,2.17531592311263
2.5,90,-142.9,2.57816810005012,2.39651286310206
2.5,90,-142.8,2.36368196236692,2.59969563300645
2.5,90,-142.7,2.13360375269601,2.78356072749791
2.5,90,-142.6,1.8896772672633,2.94695543418689
2.5,90,-142.5,1.6337268530423,3.08888418004087
2.5,90,-142.4,1.36764332682549,3.20851364353884
2.5,90,-142.3,1.09336963003098,3.30517661700232
2.5,90,-142.2,0.812886328678838,3.37837461311808
2.5,90,-142.1,0.52819706691054,3.4277792190755
2.5,90,-142,0.241314080574549,3.45323221091163
2.5,90,-141.9,-0.0457561252026162,3.45474444952629
2.5,90,-141.8,-0.331026833864589,3.4324935883381
2.5,90,-141.7,-0.612544814091456,3.38682063064447
2.5,90,-141.6,-0.888403563306908,3.31822538237347
2.5,90,-141.5,-1.15675601124928,3.22736085302724
2.5,90,-141.4,-1.41582660254893,3.11502666417473
2.5,90,-141.3,-1.66392268344597,2.98216153082026
2.5,90,-141.2,-1.8994451243772,2.82983488632428
2.5,90,-141.1,-2.12089811710728,2.65923772625959
2.5,90,-141,-2.32689809231355,2.47167275062949
2.5,90,-140.9,-2.51618171099163,2.2685438872452
2.5,90,-140.8,-2.68761289067697,2.05134528174421
2.5,90,-140.7,-2.84018883520559,1.82164984173269
2.5,90,-140.6,-2.97304504451276,1.58109742385327
2.5,90,-140.5,-3.08545928872968,1.33138275322144
2.5,90,-140.4,-3.17685453852616,1.0742431646586
2.5,90,-140.3,-3.24680085121497,0.811446254483092
2.5,90,-140.2,-3.29501621951805,0.544777530338524
