"Freq [GHz]","Phi [deg]","Theta [deg]","re(rEX) [V]","im(rEX) [V]"
2.5,90,-180,-1.56862704887115,3.37667575559814
2.5,90,-179.9,-1.52987124729386,3.39570185659554
2.5,90,-179.8,-1.49089657247381,3.41427240885799
2.5,90,-179.7,-1.45171123734755,3.43238620332036
2.5,90,-179.6,-1.41232367610727,3.45004240502142
2.5,90,-179.5,-1.37274250343375,3.46724055282549
2.5,90,-179.4,-1.332976471626,3.48398055515079
2.5,90,-179.3,-1.29303442616675,3.50026268172103
2.5,90,-179.2,-1.252925260284,3.51608755140631
2.5,90,-179.1,-1.2126578690826,3.53145611626858
2.5,90,-179,-1.17224110382543,3.54636964197517
2.5,90,-178.9,-1.13168372694297,3.56082968478976
2.5,90,-178.8,-1.09099436834088,3.57483806539427
2.5,90,-178.7,-1.05018148355879,3.58839683983605
2.5,90,-178.6,-1.0092533143105,3.60150826793205
2.5,90,-178.5,-0.96821785190479,3.61417477949532
2.5,90,-178.4,-0.927082804009728,3.6263989387783
2.5,90,-178.3,-0.885855565179915,3.63818340755155
2.5,90,-178.2,-0.844543191517941,3.64953090725607
2.5,90,-178.1,-0.803152379787923,3.660444180681
2.5,90,-178,-0.76168945124125,3.67092595362717
2.5,90,-177.9,-0.720160340354093,3.68097889701916
2.5,90,-177.8,-0.678570588612117,3.69060558992601
2.5,90,-177.7,-0.636925343412732,3.69980848394138
2.5,90,-177.6,-0.595229362088527,3.70858986936005
2.5,90,-177.5,-0.553487020988994,3.71695184356724
2.5,90,-177.4,-0.511702329491729,3.72489628203251
2.5,90,-177.3,-0.469878948750347,3.73242481226963
2.5,90,-177.2,-0.428020214923943,3.73953879108923
2.5,90,-177.1,-0.386129166575003,3.74623928543214
2.5,90,-177,-0.344208575867367,3.75252705702885
2.5,90,-176.9,-0.302260983146891,3.75840255108456
2.5,90,-176.8,-0.26028873444199,3.76386588914122
2.5,90,-176.7,-0.218294021383338,3.76891686621732
2.5,90,-176.6,-0.176278923009913,3.77355495227435
2.5,90,-176.5,-0.134245448902749,3.77777929800676
2.5,90,-176.4,-0.0921955830707233,3.78158874489872
2.5,90,-176.3,-0.0501313280013116,3.7849818394398
2.5,90,-176.2,-0.00805474828695463,3.78795685133998
2.5,90,-176.1,0.0340319867581328,3.7905117955358
2.5,90,-176,0.0761265620632308,3.79264445773254
2.5,90,-175.9,0.118226477901201,3.79435242318385
2.5,90,-175.8,0.160329013649537,3.79563310836999
2.5,90,-175.7,0.202431194704462,3.79648379520034
2.5,90,-175.6,0.244529763000015,3.79690166733383
2.5,90,-175.5,0.286621151538192,3.79688384818505
2.5,90,-175.4,0.328701463284412,3.79642744016225
2.5,90,-175.3,0.370766454726983,3.79552956466802
2.5,90,-175.2,0.412811524338949,3.79418740238334
2.5,90,-175.1,0.454831706117653,3.79239823335216
2.5,90,-175,0.496821668312099,3.79015947638498
2.5,90,-174.9,0.538775717380757,3.78746872730844
2.5,90,-174.8,0.580687807155338,3.78432379560126
2.5,90,-174.7,0.622551553118348,3.78072273897632
2.5,90,-174.6,0.664360251636047,3.77666389549375
2.5,90,-174.5,0.706106903924207,3.77214591281959
2.5,90,-174.4,0.747784244462247,3.76716777427944
2.5,90,-174.3,0.789384773513569,3.76172882139579
2.5,90,-174.2,0.83090079335617,3.75582877264023
2.5,90,-174.1,0.872324447778815,3.7494677381785
2.5,90,-174,0.913647764355284,3.74264623043508
2.5,90,-173.9,0.954862698971918,3.73536517035524
2.5,90,-173.8,0.995961182054041,3.72762588929516
2.5,90,-173.7,1.03693516591311,3.71943012652439
2.5,90,-173.6,1.07777667262101,3.71078002237851
2.5,90,-173.5,1.1184778418095,3.70167810715318
2.5,90,-173.4,1.15903097779218,3.69212728588292
2.5,90,-173.3,1.19942859541331,3.68213081919832
2.5,90,-173.2,1.23966346404254,3.67169230050339
2.5,90,-173.1,1.27972864915649,3.66081562975941
2.5,90,-173,1.31961755097717,3.64950498420366
2.5,90,-172.9,1.35932393967305,3.63776478636789
2.5,90,-172.8,1.39884198667059,3.62559966979506
2.5,90,-172.7,1.43816629167188,3.61301444288002
2.5,90,-172.6,1.47729190502697,3.60001405128287
2.5,90,-172.5,1.51621434516679,3.58660353938035
2.5,90,-172.4,1.55492961086344,3.57278801123235
2.5,90,-172.3,1.59343418814907,3.55857259154547
2.5,90,-172.2,1.63172505179036,3.54396238711521
2.5,90,-172.1,1.66979966128307,3.52896244922196
2.5,90,-172,1.7076559513993,3.51357773744296
2.5,90,-171.9,1.74529231738714,3.49781308532507
2.5,90,-171.8,1.78270759498902,3.48167316833864
2.5,90,-171.7,1.81990103550864,3.46516247450486
2.5,90,-171.6,1.85687227621811,3.44828527805461
2.5,90,-171.5,1.89362130645419,3.43104561643919
2.5,90,-171.4,1.9301484298053,3.41344727097138
2.5,90,-171.3,1.96645422283983,3.39549375132966
2.5,90,-171.2,2.00253949086783,3.37718828411052
2.5,90,-171.1,2.03840522126523,3.3585338055631
2.5,90,-171,2.07405253491871,3.33953295858872
2.5,90,-170.9,2.10948263637248,3.32018809403444
2.5,90,-170.8,2.14469676327344,3.30050127625691
2.5,90,-170.7,2.17969613571932,3.28047429287945
2.5,90,-170.6,2.21448190611475,3.26010866861379
2.5,90,-170.5,2.24905511013348,3.23940568296704
2.5,90,-170.4,2.28341661937043,3.21836639160719
2.5,90,-170.3,2.31756709624562,3.19699165111452
2.5,90,-170.2,2.35150695169392,3.17528214680511
2.5,90,-170.1,2.38523630613906,3.15323842327463
2.5,90,-170,2.41875495420993,3.13086091727699
2.5,90,-169.9,2.4520623336099,3.10814999252416
2.5,90,-169.8,2.48515749849892,3.08510597596961
2.5,90,-169.7,2.51803909769207,3.06172919511992
2.5,90,-169.6,2.55070535791873,3.03802001590659
2.5,90,-169.5,2.58315407232472,3.01397888064351
2.5,90,-169.4,2.61538259433485,2.98960634559449
2.5,90,-169.3,2.64738783692851,2.96490311768059
2.5,90,-169.2,2.67916627731431,2.9398700898675
2.5,90,-169.1,2.71071396692491,2.91450837478998
2.5,90,-169,2.7420265465884,2.88881933619181
2.5,90,-168.9,2.77309926667053,2.86280461778727
2.5,90,-168.8,2.80392701192248,2.83646616918145
2.5,90,-168.7,2.8345043307131,2.8098062685234
2.5,90,-168.6,2.86482546827226,2.78282754160591
2.5,90,-168.5,2.89488440352564,2.75553297716963
2.5,90,-168.4,2.92467488905908,2.72792593821586
2.5,90,-168.3,2.9541904937152,2.70001016918081
2.5,90,-168.2,2.98342464729562,2.67178979887534
2.5,90,-168.1,3.01237068681905,2.64326933914557
2.5,90,-168,3.04102190377001,2.61445367926193
2.5,90,-167.9,3.06937159176359,2.58534807609677
2.5,90,-167.8,3.09741309405055,2.55595814020127
2.5,90,-167.7,3.12513985029188,2.52628981794271
2.5,90,-167.6,3.1525454420448,2.49634936991094
2.5,90,-167.5,3.17962363642141,2.4661433458478
2.5,90,-167.4,3.20636842740667,2.43567855639581
2.5,90,-167.3,3.23277407435501,2.40496204200041
2.5,90,-167.2,3.25883513722221,2.37400103933472
2.5,90,-167.1,3.28454650813284,2.34280294564528
2.5,90,-167,3.30990343893086,2.31137528144227
2.5,90,-166.9,3.33490156441351,2.27972565197762
2.5,90,-166.8,3.35953692100369,2.24786170796846
2.5,90,-166.7,3.38380596067449,2.21579110603232
2.5,90,-166.6,3.40770555999962,2.1835214693038
2.5,90,-166.5,3.43123302426502,2.15106034869946
2.5,90,-166.4,3.45438608663886,2.11841518529007
2.5,90,-166.3,3.47716290245898,2.08559327422514
2.5,90,-166.2,3.49956203875736,2.05260173063604
2.5,90,-166.1,3.52158245920017,2.01944745791964
2.5,90,-166,3.54322350467838,1.98613711877542
2.5,90,-165.9,3.56448486983704,1.952677109336
2.5,90,-165.8,3.58536657588069,1.91907353669297
2.5,90,-165.7,3.60586894003766,1.8853322000797
2.5,90,-165.6,3.62599254210544,1.85145857592793
2.5,90,-165.5,3.64573818853458,1.81745780696913
2.5,90,-165.4,3.66510687453673,1.78333469550236
2.5,90,-165.3,3.68409974472547,1.74909370090094
2.5,90,-165.2,3.70271805281474,1.71473894137906
2.5,90,-165.1,3.72096312090906,1.68027419998901
2.5,90,-165,3.73883629892306,1.64570293476849
2.5,90,-164.9,3.7563389246641,1.61102829290888
2.5,90,-164.8,3.77347228510118,1.57625312876672
2.5,90,-164.7,3.79023757932717,1.54138002549533
2.5,90,-164.6,3.80663588369797,1.50641132003055
2.5,90,-164.5,3.8226681196039,1.47134913112454
2.5,90,-164.4,3.83833502429389,1.43619539008588
2.5,90,-164.3,3.85363712513386,1.40095187385188
2.5,90,-164.2,3.86857471763683,1.36562023999172
2.5,90,-164.1,3.88314784755406,1.3302020632161
2.5,90,-164,3.89735629726546,1.29469887295153
2.5,90,-163.9,3.91119957665306,1.25911219152477
2.5,90,-163.8,3.92467691858526,1.22344357249585
2.5,90,-163.7,3.93778727908189,1.18769463867632
2.5,90,-163.6,3.95052934217171,1.15186711937315
2.5,90,-163.5,3.96290152939564,1.11596288640764
2.5,90,-163.4,3.97490201385119,1.07998398847338
2.5,90,-163.3,3.98652873861767,1.04393268341613
2.5,90,-163.2,3.99777943934715,1.00781146804318
2.5,90,-163.1,4.00865167075499,0.971623105098385
2.5,90,-163,4.01914283669549,0.935370647071642
2.5,90,-162.9,4.02925022346394,0.899057456548835
2.5,90,-162.8,4.03897103592669,0.862687222847811
2.5,90,-162.7,4.04830243604563,0.826263974729233
2.5,90,-162.6,4.05724158333406,0.789792089016115
2.5,90,-162.5,4.06578567675657,0.75327629500307
2.5,90,-162.4,4.07393199756749,0.716721674584925
2.5,90,-162.3,4.08167795257017,0.680133658083022
2.5,90,-162.2,4.08902111727351,0.643518015797066
2.5,90,-162.1,4.09595927842209,0.606880845359258
2.5,90,-162,4.10249047538306,0.570228555015036
2.5,90,-161.9,4.10861303988515,0.533567843001482
2.5,90,-161.8,4.11432563362365,0.496905673238464
2.5,90,-161.7,4.11962728326957,0.460249247589459
2.5,90,-161.6,4.12451741245029,0.423605974987803
2.5,90,-161.5,4.12899587030396,0.386983437759297
2.5,90,-161.4,4.13306295624851,0.350389355503791
2.5,90,-161.3,4.13671944064988,0.313831546925496
2.5,90,-161.2,4.13996658112027,0.277317890024716
2.5,90,-161.1,4.14280613422756,0.240856281081907
2.5,90,-161,4.14524036244889,0.204454592878055
2.5,90,-160.9,4.14727203625562,0.168120632603819
2.5,90,-160.8,4.14890443127217,0.131862099912914
2.5,90,-160.7,4.15014132050683,0.095686545573235
2.5,90,-160.6,4.15098696170857,0.0596013311623308
2.5,90,-160.5,4.1514460799585,0.0236135902417156
2.5,90,-160.4,4.15152384565843,-0.0122698085721686
2.5,90,-160.3,4.1512258481304,-0.0480422962438534
2.5,90,-160.2,4.15055806509009,-0.0836976352910019
2.5,90,-160.1,4.14952682830286,-0.119229948751698
2.5,90,-160,4.14813878577366,-0.15463374583942
2.5,90,-159.9,4.14640086085972,-0.189903944014594
2.5,90,-159.8,4.14432020872931,-0.225035887241514
2.5,90,-159.7,4.14190417061811,-0.260025360241085
2.5,90,-159.6,4.13916022635867,-0.294868598593874
2.5,90,-159.5,4.13609594567672,-0.329562294593302
2.5,90,-159.4,4.13271893876076,-0.364103598794807
2.5,90,-159.3,4.12903680661828,-0.398490117253801
2.5,90,-159.2,4.12505709173347,-0.432719904491482
2.5,90,-159.1,4.12078722953674,-0.4667914522736
2.5,90,-159,4.11623450118616,-0.500703674332295
2.5,90,-158.9,4.11140598814579,-0.534455887203727
2.5,90,-158.8,4.10630852902463,-0.568047787396102
2.5,90,-158.7,4.10094867911443,-0.601479425140742
2.5,90,-158.6,4.09533267303383,-0.634751175014753
2.5,90,-158.5,4.08946639085174,-0.667863703756385
2.5,90,-158.4,4.08335532802378,-0.700817935622659
2.5,90,-158.3,4.07700456943376,-0.733615015664034
2.5,90,-158.2,4.07041876778671,-0.76625627131139
2.5,90,-158.1,4.06360212655262,-0.798743172686986
2.5,90,-158,4.05655838761027,-0.831077292063123
2.5,90,-157.9,4.04929082369005,-0.863260262899003
2.5,90,-157.8,4.04180223566256,-0.895293738889368
2.5,90,-157.7,4.03409495466851,-0.92717935345604
2.5,90,-157.6,4.02617084903346,-0.958918680106981
2.5,90,-157.5,4.01803133586083,-0.990513194076275
2.5,90,-157.4,4.00967739714733,-1.02196423564277
2.5,90,-157.3,4.00110960021796,-1.05327297550557
2.5,90,-157.2,3.99232812223324,-1.0844403825708
2.5,90,-157.1,3.98333277847982,-1.11546719447699
2.5,90,-157,3.97412305411703,-1.14635389115551
2.5,90,-156.9,3.96469813901827,-1.17710067168936
2.5,90,-156.8,3.95505696531505,-1.207707434697
2.5,90,-156.7,3.94519824722623,-1.23817376243007
2.5,90,-156.6,3.93512052273352,-1.26849890873303
2.5,90,-156.5,3.92482219664809,-1.29868179097221
2.5,90,-156.4,3.91430158460175,-1.32872098599851
2.5,90,-156.3,3.90355695748985,-1.35861473016584
2.5,90,-156.2,3.89258658589189,-1.38836092338445
2.5,90,-156.1,3.88138878399985,-1.41795713714597
2.5,90,-156,3.86996195259281,-1.44740062641587
2.5,90,-155.9,3.85830462061042,-1.47668834524869
2.5,90,-155.8,3.84641548489588,-1.50581696594355
2.5,90,-155.7,3.83429344770215,-1.5347829015211
2.5,90,-155.6,3.82193765158156,-1.56358233126949
2.5,90,-155.5,3.80934751131011,-1.59221122907645
2.5,90,-155.4,3.7965227425316,-1.62066539423647
2.5,90,-155.3,3.78346338684394,-1.64894048439844
2.5,90,-155.2,3.77016983308988,-1.67703205029799
2.5,90,-155.1,3.75664283465636,-1.70493557190235
2.5,90,-155,3.74288352263005,-1.7326464955826
2.5,90,-154.9,3.72889341470214,-1.76016027191932
2.5,90,-154.8,3.71467441976055,-1.78747239374317
2.5,90,-154.7,3.70022883815378,-1.81457843401126
2.5,90,-154.6,3.68555935765661,-1.84147408312387
2.5,90,-154.5,3.67066904521219,-1.86815518529358
2.5,90,-154.4,3.65556133456963,-1.89461777359031
2.5,90,-154.3,3.64024000997748,-1.92085810330144
2.5,90,-154.2,3.62470918613441,-1.94687268326455
2.5,90,-154.1,3.60897328463553,-1.97265830485292
2.5,90,-154,3.59303700718768,-1.99821206831918
2.5,90,-153.9,3.57690530589901,-2.02353140623047
2.5,90,-153.8,3.56058335097598,-2.04861410375946
2.5,90,-153.7,3.5440764961856,-2.07345831562826
2.5,90,-153.6,3.52739024246144,-2.09806257953663
2.5,90,-153.5,3.510530200048,-2.12242582594288
2.5,90,-153.4,3.49350204959077,-2.14654738410188
2.5,90,-153.3,3.4763115025868,-2.17042698430366
2.5,90,-153.2,3.45896426161432,-2.19406475629353
2.5,90,-153.1,3.44146598075931,-2.21746122389314
2.5,90,-153,3.42382222665145,-2.24061729587962
2.5,90,-152.9,3.40603844051311,-2.26353425321667
2.5,90,-152.8,3.38811990161123,-2.28621373276722
2.5,90,-152.7,3.37007169248506,-2.30865770765153
2.5,90,-152.6,3.35189866630177,-2.33086846444679
2.5,90,-152.5,3.33360541666753,-2.3528485774545
2.5,90,-152.4,3.31519625019453,-2.37460088028951
2.5,90,-152.3,3.29667516209393,-2.39612843506978
2.5,90,-152.2,3.27804581503236,-2.41743449950793
2.5,90,-152.1,3.25931152145434,-2.43852249222464
2.5,90,-152,3.24047522953707,-2.45939595661989
2.5,90,-151.9,3.22153951290553,-2.48005852365005
2.5,90,-151.8,3.2025065641976,-2.50051387386817
2.5,90,-151.7,3.18337819252897,-2.52076569909002
2.5,90,-151.6,3.16415582486843,-2.54081766404995
2.5,90,-151.5,3.14484051129492,-2.56067336840977
2.5,90,-151.4,3.12543293406861,-2.58033630947778
2.5,90,-151.3,3.1059334204113,-2.5998098459872
2.5,90,-151.2,3.08634195885467,-2.61909716327116
2.5,90,-151.1,3.06665821898073,-2.63820124015651
2.5,90,-151,3.0468815743462,-2.65712481788102
2.5,90,-150.9,3.02701112835264,-2.67587037131745
2.5,90,-150.8,3.00704574279645,-2.69444008276537
2.5,90,-150.7,2.98698406880856,-2.71283581854587
2.5,90,-150.6,2.96682457987181,-2.73105910860673
2.5,90,-150.5,2.94656560658604,-2.74911112931695
2.5,90,-150.4,2.92620537283579,-2.76699268959825
2.5,90,-150.3,2.90574203300451,-2.7847042205101
2.5,90,-150.2,2.8851737098708,-2.80224576837174
2.5,90,-150.1,2.86449853281888,-2.81961699147193
2.5,90,-150,2.84371467599395,-2.8368171603838
2.5,90,-149.9,2.82282039603701,-2.85384516186907
2.5,90,-149.8,2.80181406903955,-2.87069950632329
2.5,90,-149.7,2.78069422636877,-2.88737833868162
2.5,90,-149.6,2.75945958902706,-2.90387945267408
2.5,90,-149.5,2.73810910022567,-2.92020030828932
2.5,90,-149.4,2.71664195587174,-2.93633805227789
2.5,90,-149.3,2.69505763268966,-2.95228954150003
2.5,90,-149.2,2.6733559137219,-2.96805136889844
2.5,90,-149.1,2.65153691098119,-2.98361989185467
2.5,90,-149,2.62960108505377,-2.99899126266825
2.5,90,-148.9,2.60754926148404,-3.01416146088025
2.5,90,-148.8,2.5853826438015,-3.02912632714924
2.5,90,-148.7,2.56310282308373,-3.04388159837532
2.5,90,-148.6,2.54071178398161,-3.05842294375967
2.5,90,-148.5,2.51821190716646,-3.07274600148101
2.5,90,-148.4,2.49560596819201,-3.08684641566748
2.5,90,-148.3,2.47289713279719,-3.10071987334231
2.5,90,-148.2,2.45008894870811,-3.11436214102478
2.5,90,-148.1,2.42718533402898,-3.12776910067318
2.5,90,-148,2.40419056234256,-3.14093678466535
2.5,90,-147.9,2.3811092446691,-3.15386140952296
2.5,90,-147.8,2.35794630846041,-3.16653940809932
2.5,90,-147.7,2.33470697383101,-3.17896745996631
2.5,90,-147.6,2.31139672725125,-3.19114251975395
2.5,90,-147.5,2.28802129294858,-3.20306184321605
2.5,90,-147.4,2.26458660228137,-3.21472301081692
2.5,90,-147.3,2.24109876136562,-3.22612394865777
2.5,90,-147.2,2.217564017248,-3.23726294658535
2.5,90,-147.1,2.19398872292897,-3.24813867335176
2.5,90,-147,2.17037930154722,-3.25875018872024
2.5,90,-146.9,2.14674221004132,-3.26909695243924
2.5,90,-146.8,2.12308390260599,-3.27917883003441
2.5,90,-146.7,2.09941079425954,-3.28899609539584
2.5,90,-146.6,2.0757292248347,-3.29854943016506
2.5,90,-146.5,2.0520454236986,-3.30783991995393
2.5,90,-146.4,2.02836547549835,-3.31686904745346
2.5,90,-146.3,2.00469528721654,-3.32563868251671
2.5,90,-146.2,1.98104055680704,-3.33415106932448
2.5,90,-146.1,1.95740674366488,-3.34240881076591
2.5,90,-146,1.93379904116557,-3.35041485018798
2.5,90,-145.9,1.91022235148884,-3.35817245068887
2.5,90,-145.8,1.88668126292,-3.36568517214815
2.5,90,-145.7,1.86318002979848,-3.37295684620419
2.5,90,-145.6,1.83972255525895,-3.37999154940392
2.5,90,-145.5,1.81631237688448,-3.3867935747626
2.5,90,-145.4,1.79295265536537,-3.39336740198229
2.5,90,-145.3,1.76964616623047,-3.39971766658579
2.5,90,-145.2,1.74639529469078,-3.40584912822934
2.5,90,-145.1,1.72320203360838,-3.41176663846073
2.5,90,-145,1.70006798457701,-3.41747510819181
2.5,90,-144.9,1.67699436207441,-3.42297947515295
2.5,90,-144.8,1.65398200062115,-3.42828467159492
2.5,90,-144.7,1.63103136485576,-3.43339559249799
2.5,90,-144.6,1.60814256241298,-3.43831706454151
2.5,90,-144.5,1.58531535946907,-3.4430538160778
2.5,90,-144.4,1.56254919879808,-3.44761044834337
2.5,90,-144.3,1.53984322016314,-3.45199140812772
2.5,90,-144.2,1.51719628284992,-3.4562009621057
2.5,90,-144.1,1.49460699013355,-3.46024317302355
2.5,90,-144,1.47207371545683,-3.46412187791136
2.5,90,-143.9,1.44959463008614,-3.46784066847679
2.5,90,-143.8,1.42716773200179,-3.471402873815
2.5,90,-143.7,1.40479087577256,-3.47481154555013
2.5,90,-143.6,1.38246180315887,-3.47806944550224
2.5,90,-143.5,1.36017817418652,-3.48117903595302
2.5,90,-143.4,1.33793759843166,-3.48414247256117
2.5,90,-143.3,1.31573766625989,-3.48696159995752
2.5,90,-143.2,1.29357597976507,-3.48963795002755
2.5,90,-143.1,1.27145018315988,-3.49217274286812
2.5,90,-143,1.24935799237691,-3.49456689038394
2.5,90,-142.9,1.22729722364915,-3.49682100246892
2.5,90,-142.8,1.20526582084948,-3.498935395698
2.5,90,-142.7,1.18326188138158,-3.5009101044359
2.5,90,-142.6,1.16128368042924,-3.50274489425178
2.5,90,-142.5,1.13932969338616,-3.50443927751177
2.5,90,-142.4,1.11739861630567,-3.505992531006
2.5,90,-142.3,1.09548938422738,-3.50740371545259
2.5,90,-142.2,1.07360118725629,-3.50867169670833
2.5,90,-142.1,1.05173348428997,-3.50979516850475
2.5,90,-142,1.02988601430848,-3.51077267651827
2.5,90,-141.9,1.00805880516297,-3.5116026435755
2.5,90,-141.8,0.986252179818605,-3.51228339578813
2.5,90,-141.7,0.964466760028619,-3.51281318940727
2.5,90,-141.6,0.942703467436313,-3.51319023818396
2.5,90,-141.5,0.920963522122089,-3.51341274102134
2.5,90,-141.4,0.899248438632265,-3.5134789097042
2.5,90,-141.3,0.877560019545409,-3.51338699649347
2.5,90,-141.2,0.855900346650168,-3.51313532137691
2.5,90,-141.1,0.834271769826215,-3.51272229877209
2.5,90,-141,0.812676893735992,-3.51214646348426
2.5,90,-140.9,0.791118562450693,-3.51140649572971
2.5,90,-140.8,0.769599842147594,-3.51050124504412
2.5,90,-140.7,0.748124002029008,-3.50942975290611
2.5,90,-140.6,0.726694493624389,-3.50819127391737
2.5,90,-140.5,0.705314928647138,-3.5067852953933
2.5,90,-140.4,0.683989055586315,-3.50521155523165
2.5,90,-140.3,0.662720735220318,-3.5034700579405
2.5,90,-140.2,0.641513915245151,-3.50156108872189
2.5,90,-140.1,0.620372604213844,-3.49948522552275
2.5,90,-140,0.599300844985763,-3.49724334898038
2.5,90,-139.9,0.578302687885668,-3.49483665020582
