"Freq [GHz]","Phi [deg]","Theta [deg]","re(rEX) [V]","im(rEX) [V]"
2.5,90,-180,-1.19084067904608,3.50444788083804
2.5,90,-179.9,-1.30388228138025,3.46519216865279
2.5,90,-179.8,-1.41575271021874,3.42232309319318
2.5,90,-179.7,-1.52633735325979,3.37586923317623
2.5,90,-179.6,-1.63552166507184,3.32586266534585
2.5,90,-179.5,-1.74319127761449,3.27233904484366
2.5,90,-179.4,-1.84923212177295,3.21533768201959
2.5,90,-179.3,-1.95353055958182,3.15490161443227
2.5,90,-179.2,-2.05597352667847,3.0910776728245
2.5,90,-179.1,-2.15644868439638,3.02391653990927
2.5,90,-179,-2.25484458078797,2.95347280086548
2.5,90,-178.9,-2.351050819753,2.87980498452021
2.5,90,-178.8,-2.44495823734773,2.80297559428305
2.5,90,-178.7,-2.53645908425943,2.72305112799826
2.5,90,-178.6,-2.62544721335378,2.64010208598973
2.5,90,-178.5,-2.71181827113914,2.55420296669092
2.5,90,-178.4,-2.79546989194203,2.46543224937591
2.5,90,-178.3,-2.87630189355429,2.37387236363546
2.5,90,-178.2,-2.95421647309221,2.27960964537398
2.5,90,-178.1,-3.0291184018042,2.18273427923604
2.5,90,-178,-3.10091521757403,2.08334022750275
2.5,90,-177.9,-3.16951741389205,1.98152514563015
2.5,90,-177.8,-3.2348386241065,1.87739028472732
2.5,90,-177.7,-3.29679579982034,1.77104038139423
2.5,90,-177.6,-3.35530938236429,1.6625835354543
2.5,90,-177.5,-3.41030346635483,1.55213107622317
2.5,90,-177.4,-3.46170595443359,1.43979741805298
2.5,90,-177.3,-3.50944870238128,1.32569990597934
2.5,90,-177.2,-3.5534676539052,1.20995865237224
2.5,90,-177.1,-3.59370296450957,1.09269636555806
2.5,90,-177,-3.6300991139752,0.974038171427762
2.5,90,-176.9,-3.662605007093,0.854111429087261
2.5,90,-176.8,-3.69117406241797,0.733045541626311
2.5,90,-176.7,-3.7157642889303,0.610971763094813
2.5,90,-176.6,-3.73633835060974,0.488023002771728
2.5,90,-176.5,-3.75286361904562,0.364333627793308
2.5,90,-176.4,-3.76531221431564,0.240039265180774
2.5,90,-176.3,-3.77366103447232,0.115276604262769
2.5,90,-176.2,-3.77789177407332,-0.00981679956308975
2.5,90,-176.1,-3.7779909322812,-0.135102718850968
2.5,90,-176,-3.77394981113714,-0.260442445103717
2.5,90,-175.9,-3.7657645046822,-0.385696976021263
2.5,90,-175.8,-3.75343587965657,-0.510727198365878
2.5,90,-175.7,-3.73696954855242,-0.635394065903485
2.5,90,-175.6,-3.71637583582865,-0.759558771979241
2.5,90,-175.5,-3.69166973811549,-0.88308291638814
2.5,90,-175.4,-3.66287087924394,-1.00582866630353
2.5,90,-175.3,-3.63000346092896,-1.12765891113083
2.5,90,-175.2,-3.59309620991714,-1.24843741125448
2.5,90,-175.1,-3.55218232237887,-1.36802894074508
2.5,90,-175,-3.50729940628309,-1.48629942418838
2.5,90,-174.9,-3.45848942243996,-1.6031160678853
2.5,90,-174.8,-3.40579862483413,-1.71834748575501
2.5,90,-174.7,-3.34927750079979,-1.8318638203462
2.5,90,-174.6,-3.28898071150981,-1.9435368594261
2.5,90,-174.5,-3.22496703316513,-2.05324014867261
2.5,90,-174.4,-3.15729929918046,-2.16084910103796
2.5,90,-174.3,-3.08604434356754,-2.26624110338634
2.5,90,-174.2,-3.01127294562027,-2.36929562102917
2.5,90,-174.1,-2.93305977590883,-2.46989430079152
2.5,90,-174,-2.85148334349206,-2.56792107324123
2.5,90,-173.9,-2.76662594416325,-2.66326225469808
2.5,90,-173.8,-2.6785736094518,-2.75580664961569
2.5,90,-173.7,-2.58741605601723,-2.84544565389145
2.5,90,-173.6,-2.49324663499079,-2.93207335961343
2.5,90,-173.5,-2.39616228074609,-3.01558666169605
2.5,90,-173.4,-2.29626345851582,-3.09588536679019
2.5,90,-173.3,-2.19365411021481,-3.17287230477955
2.5,90,-173.2,-2.08844159778464,-3.24645344309416
2.5,90,-173.1,-1.98073664333985,-3.31653800398483
2.5,90,-173,-1.87065326537251,-3.38303858481087
2.5,90,-172.9,-1.75830871025997,-3.44587128129909
2.5,90,-172.8,-1.64382337832206,-3.50495581363427
2.5,90,-172.7,-1.52732074368503,-3.56021565514507
2.5,90,-172.6,-1.40892726723604,-3.61157816325193
2.5,90,-172.5,-1.28877230198608,-3.65897471224941
2.5,90,-172.4,-1.16698799021012,-3.70234082740376
2.5,90,-172.3,-1.04370915178869,-3.74161631976089
2.5,90,-172.2,-0.919073163246174,-3.77674542097896
2.5,90,-172.1,-0.793219827058302,-3.80767691742653
2.5,90,-172,-0.666291230887338,-3.83436428272221
2.5,90,-171.9,-0.538431596498229,-3.85676580783526
2.5,90,-171.8,-0.409787118207381,-3.87484472782073
2.5,90,-171.7,-0.28050579082189,-3.88856934422653
2.5,90,-171.6,-0.150737227133574,-3.89791314218577
2.5,90,-171.5,-0.020632465143669,-3.90285490119446
2.5,90,-171.4,0.109656234694445,-3.90337879857325
2.5,90,-171.3,0.239975601817641,-3.89947450462313
2.5,90,-171.2,0.370171576973956,-3.89113726850715
2.5,90,-171.1,0.500089542110053,-3.87836799392477
2.5,90,-171,0.629574558012972,-3.86117330369098
2.5,90,-170.9,0.758471608897815,-3.83956559238915
2.5,90,-170.8,0.886625853045946,-3.81356306633291
2.5,90,-170.7,1.01388287851776,-3.78318977014917
2.5,90,-170.6,1.14008896289326,-3.74847559937931
2.5,90,-170.5,1.2650913359332,-3.70945629858792
2.5,90,-170.4,1.38873844400268,-3.6661734445685
2.5,90,-170.3,1.51088021506063,-3.61867441433991
2.5,90,-170.2,1.6313683229916,-3.56701233773685
2.5,90,-170.1,1.75005645004067,-3.51124603450997
2.5,90,-170,1.8668005461107,-3.45143993596514
2.5,90,-169.9,1.98145908368913,-3.3876639912864
2.5,90,-169.8,2.09389330719515,-3.31999355880062
2.5,90,-169.7,2.2039674755703,-3.24850928255384
2.5,90,-169.6,2.31154909698174,-3.17329695467781
2.5,90,-169.5,2.41650915456342,-3.09444736412886
2.5,90,-169.4,2.51872232218643,-3.01205613248018
2.5,90,-169.3,2.61806716932693,-2.92622353753928
2.5,90,-169.2,2.71442635418345,-2.83705432564724
2.5,90,-169.1,2.80768680428859,-2.74465751359091
2.5,90,-169,2.89773988395873,-2.64914618112536
2.5,90,-168.9,2.98448154802908,-2.5506372551603
2.5,90,-168.8,3.06781248143056,-2.44925128670864
2.5,90,-168.7,3.14763822427586,-2.34511222173082
2.5,90,-168.6,3.22386928223503,-2.23834716703112
2.5,90,-168.5,3.296421222095,-2.12908615237403
2.5,90,-168.4,3.3652147525092,-2.01746188998981
2.5,90,-168.3,3.43017579005466,-1.90360953262727
2.5,90,-168.2,3.491235510821,-1.78766643128992
2.5,90,-168.1,3.54833038785841,-1.66977189376042
2.5,90,-168,3.60140221490962,-1.55006694497396
2.5,90,-167.9,3.65039811694051,-1.4286940902524
2.5,90,-167.8,3.69527054806883,-1.30579708234752
2.5,90,-167.7,3.73597727756473,-1.18152069317519
2.5,90,-167.6,3.772481364663,-1.05601049104639
2.5,90,-167.5,3.80475112298426,-0.929412624119134
2.5,90,-167.4,3.83276007540824,-0.801873610709515
2.5,90,-167.3,3.85648690027917,-0.673540137008872
2.5,90,-167.2,3.87591536984877,-0.544558862661641
2.5,90,-167.1,3.89103428187763,-0.415076234562138
2.5,90,-167,3.90183738532026,-0.285238309133617
2.5,90,-166.9,3.90832330101318,-0.1551905832579
2.5,90,-166.8,3.91049543826923,-0.025077833929095
2.5,90,-166.7,3.90836190825588,0.104956033385476
2.5,90,-166.6,3.90193543499988,0.234768127781512
2.5,90,-166.5,3.89123326481736,0.364216707539375
2.5,90,-166.4,3.87627707491671,0.493161306595742
2.5,90,-166.3,3.85709288186315,0.621462853202607
2.5,90,-166.2,3.8337109505291,0.748983781174695
2.5,90,-166.1,3.80616570408419,0.875588134183709
2.5,90,-166,3.77449563550439,1.00114166360729
2.5,90,-165.9,3.73874322100196,1.12551192048048
2.5,90,-165.8,3.69895483569786,1.24856834213028
2.5,90,-165.7,3.65518067177674,1.37018233409681
2.5,90,-165.6,3.60747465928339,1.49022734795847
2.5,90,-165.5,3.5558943896384,1.6085789556848
2.5,90,-165.4,3.50050104187214,1.725114921136
2.5,90,-165.3,3.44135931149972,1.83971526931756
2.5,90,-165.2,3.37853734188705,1.95226235397748
2.5,90,-165.1,3.31210665789001,2.06264092410632
2.5,90,-165,3.24214210148583,2.17073818986524
2.5,90,-164.9,3.16872176905872,2.27644388842582
2.5,90,-164.8,3.09192694995161,2.37965035015774
2.5,90,-164.7,3.01184206585217,2.48025256554837
2.5,90,-164.6,2.92855461054551,2.57814825318083
2.5,90,-164.5,2.84215508953752,2.67323792903697
2.5,90,-164.4,2.75273695903304,2.76542497732789
2.5,90,-164.3,2.66039656374049,2.85461572299002
2.5,90,-164.2,2.56523307297054,2.94071950591821
2.5,90,-164.1,2.46734841450088,3.02364875694096
2.5,90,-164,2.36684720568992,3.10331907547764
2.5,90,-163.9,2.26383668134258,3.17964930875273
2.5,90,-163.8,2.15842661785703,3.25256163238104
2.5,90,-163.7,2.05072925321431,3.32198163207849
2.5,90,-163.6,1.94085920241285,3.38783838619819
2.5,90,-163.5,1.82893336799294,3.45006454874136
2.5,90,-163.4,1.71507084534856,3.5085964324454
2.5,90,-163.3,1.59939282257527,3.56337409151311
2.5,90,-163.2,1.48202247466192,3.61434140351067
2.5,90,-163.1,1.3630848518937,3.6614461499349
2.5,90,-163,1.24270676239548,3.70464009492772
2.5,90,-162.9,1.12101664880858,3.74387906160059
2.5,90,-162.8,0.998144459156437,3.77912300542306
2.5,90,-162.7,0.874221512018849,3.81033608412758
2.5,90,-162.6,0.749380356194847,3.83748672358706
2.5,90,-162.5,0.623754625094961,3.8605476791333
2.5,90,-162.4,0.497478886161071,3.87949609180072
2.5,90,-162.3,0.37068848566476,3.89431353900384
2.5,90,-162.2,0.243519389285735,3.9049860791851
2.5,90,-162.1,0.116108018917464,3.91150429000328
2.5,90,-162,-0.0114089138131117,3.91386329967155
2.5,90,-161.9,-0.138894576788527,3.91206281109605
2.5,90,-161.8,-0.266212188854732,3.90610711851215
2.5,90,-161.7,-0.393225192909984,3.89600511636423
2.5,90,-161.6,-0.519797430035175,3.8817703002259
2.5,90,-161.5,-0.645793314061215,3.86342075961041
2.5,90,-161.4,-0.771078005963017,3.8409791625745
2.5,90,-161.3,-0.895517587471394,3.81447273207343
2.5,90,-161.2,-1.01897923330074,3.78393321407833
2.5,90,-161.1,-1.14133138140315,3.74939683752045
2.5,90,-161,-1.26244390067841,3.71090426617775
2.5,90,-160.9,-1.38218825559204,3.66850054266957
2.5,90,-160.8,-1.50043766718282,3.62223502477127
2.5,90,-160.7,-1.61706726997338,3.57216131430509
2.5,90,-160.6,-1.7319542643345,3.51833717890397
2.5,90,-160.5,-1.84497806389361,3.46082446698139
2.5,90,-160.4,-1.95602043762124,3.39968901627314
2.5,90,-160.3,-2.06496564627375,3.33500055634509
2.5,90,-160.2,-2.17170057291835,3.26683260548405
2.5,90,-160.1,-2.27611484731371,3.19526236240838
2.5,90,-160,-2.37810096396862,3.12037059324811
2.5,90,-159.9,-2.47755439374873,3.04224151425423
2.5,90,-159.8,-2.57437368894999,2.96096267070075
2.5,90,-159.7,-2.66846058180346,2.8766248124427
2.5,90,-159.6,-2.75972007642091,2.78932176658888
2.5,90,-159.5,-2.84806053423402,2.69915030773812
2.5,90,-159.4,-2.93339375301867,2.60621002621562
2.5,90,-159.3,-3.01563503963405,2.51060319472796
2.5,90,-159.2,-3.09470327663894,2.41243463383533
2.5,90,-159.1,-3.17052098297746,2.31181157661643
2.5,90,-159,-3.24301436895331,2.20884353287375
2.5,90,-158.9,-3.31211338573122,2.10364215320128
2.5,90,-158.8,-3.37775176962411,1.99632109320341
2.5,90,-158.7,-3.43986708143577,1.88699587812449
2.5,90,-158.6,-3.49840074113816,1.7757837681152
2.5,90,-158.5,-3.55329805816695,1.66280362432881
2.5,90,-158.4,-3.60450825761837,1.54817577600824
2.5,90,-158.3,-3.65198450262704,1.43202188869185
2.5,90,-158.2,-3.69568391319603,1.3144648336344
2.5,90,-158.1,-3.73556758173903,1.19562855850973
2.5,90,-158,-3.77160058557948,1.07563795943206
2.5,90,-157.9,-3.80375199663301,0.954618754307394
2.5,90,-157.8,-3.83199488847949,0.832697357500958
2.5,90,-157.7,-3.85630634100703,0.710000755784636
2.5,90,-157.6,-3.87666744278567,0.586656385510042
2.5,90,-157.5,-3.8930632913017,0.462792010935097
2.5,90,-157.4,-3.9054829911558,0.338535603620168
2.5,90,-157.3,-3.91391965029976,0.214015222798292
2.5,90,-157.2,-3.91837037435804,0.0893588966180287
2.5,90,-157.1,-3.91883625905177,-0.0353054958467618
2.5,90,-157,-3.91532238071501,-0.159850341926818
2.5,90,-156.9,-3.9078377848663,-0.284148412130402
2.5,90,-156.8,-3.89639547277293,-0.408072976458043
2.5,90,-156.7,-3.88101238592149,-0.531497920349371
2.5,90,-156.6,-3.86170938828681,-0.654297860341172
2.5,90,-156.5,-3.83851124627157,-0.776348259503676
2.5,90,-156.4,-3.81144660617247,-0.897525542705114
2.5,90,-156.3,-3.78054796901427,-1.01770721173906
2.5,90,-156.2,-3.74585166258242,-1.13677196032916
2.5,90,-156.1,-3.70739781047663,-1.25459978900619
2.5,90,-156,-3.66523029800301,-1.37107211983152
2.5,90,-155.9,-3.61939673472075,-1.48607191091909
2.5,90,-155.8,-3.56994841346098,-1.59948377068614
2.5,90,-155.7,-3.51694026564019,-1.71119407174107
2.5,90,-155.6,-3.46043081269828,-1.82109106429505
2.5,90,-155.5,-3.40048211350242,-1.92906498896332
2.5,90,-155.4,-3.33715970757144,-2.03500818880128
2.5,90,-155.3,-3.27053255399171,-2.13881522040255
2.5,90,-155.2,-3.20067296591415,-2.24038296386809
2.5,90,-155.1,-3.12765654054303,-2.33961073143992
2.5,90,-155,-3.05156208454972,-2.43640037457935
2.5,90,-154.9,-2.97247153486897,-2.53065638925745
2.5,90,-154.8,-2.89046987486103,-2.62228601921612
2.5,90,-154.7,-2.80564504584929,-2.71119935695117
2.5,90,-154.6,-2.71808785407041,-2.79730944216328
2.5,90,-154.5,-2.62789187310129,-2.88053235742135
2.5,90,-154.4,-2.53515334185514,-2.96078732078181
2.5,90,-154.3,-2.43997105826541,-3.03799677511083
2.5,90,-154.2,-2.34244626880327,-3.11208647386123
2.5,90,-154.1,-2.24268255399977,-3.18298556306301
2.5,90,-154,-2.14078571016767,-3.25062665929645
2.5,90,-153.9,-2.03686362754142,-3.31494592342811
2.5,90,-153.8,-1.93102616507391,-3.37588312990417
2.5,90,-153.7,-1.82338502214805,-3.43338173141077
2.5,90,-153.6,-1.7140536074784,-3.48738891872826
2.5,90,-153.5,-1.60314690549115,-3.53785567562512
2.5,90,-153.4,-1.49078134048506,-3.58473682865606
2.5,90,-153.3,-1.37707463888328,-3.62799109175065
2.5,90,-153.2,-1.26214568989406,-3.66758110549919
2.5,90,-153.1,-1.14611440490222,-3.70347347106456
2.5,90,-153,-1.02910157591475,-3.73563877867111
2.5,90,-152.9,-0.911228733383181,-3.76405163064263
2.5,90,-152.8,-0.792618003721312,-3.78869065898411
2.5,90,-152.7,-0.673391966831131,-3.80953853752219
2.5,90,-152.6,-0.553673513941536,-3.82658198864001
2.5,90,-152.5,-0.433585706053208,-3.83981178466141
2.5,90,-152.4,-0.313251633271391,-3.84922274395767
2.5,90,-152.3,-0.192794275293237,-3.85481372186695
2.5,90,-152.2,-0.0723363633005518,-3.85658759653206
2.5,90,-152.1,0.0479997565082964,-3.85455124977619
2.5,90,-152,0.168092257532582,-3.84871554314818
2.5,90,-151.9,0.287819965333417,-3.83909528927975
2.5,90,-151.8,0.407062487972523,-3.82570921870534
2.5,90,-151.7,0.525700343970021,-3.80857994230224
2.5,90,-151.6,0.643615087746378,-3.78773390951342
2.5,90,-151.5,0.760689432433886,-3.7632013625185
2.5,90,-151.4,0.876807369962943,-3.7350162865197
2.5,90,-151.3,0.991854288347473,-3.70321635630884
2.5,90,-151.2,1.10571708611271,-3.66784287927942
2.5,90,-151.1,1.21828428382523,-3.62894073504416
2.5,90,-151,1.32944613270204,-3.58655831181291
2.5,90,-150.9,1.43909472028913,-3.54074743967976
2.5,90,-150.8,1.54712407321381,-3.49156332096038
2.5,90,-150.7,1.6534302570261,-3.43906445771205
2.5,90,-150.6,1.75791147315378,-3.3833125765597
2.5,90,-150.5,1.86046815300399,-3.32437255094121
2.5,90,-150.4,1.96100304924894,-3.26231232087481
2.5,90,-150.3,2.059421324338,-3.19720281034136
2.5,90,-150.2,2.15563063627941,-3.12911784236299
2.5,90,-150.1,2.24954122173513,-3.05813405184997
2.5,90,-150,2.34106597647008,-2.98433079627706
2.5,90,-149.9,2.43012053319303,-2.9077900642417
2.5,90,-149.8,2.51662333682091,-2.82859638194708
2.5,90,-149.7,2.60049571719126,-2.7468367176458
2.5,90,-149.6,2.68166195923843,-2.66260038407266
2.5,90,-149.5,2.76004937064009,-2.5759789388893
2.5,90,-149.4,2.83558834692841,-2.4870660831596
2.5,90,-149.3,2.90821243404963,-2.39595755787091
2.5,90,-149.2,2.97785838834218,-2.30275103851506
2.5,90,-149.1,3.04446623389059,-2.20754602774285
2.5,90,-149,3.10797931719978,-2.11044374610662
2.5,90,-148.9,3.16834435911941,-2.0115470209097
2.5,90,-148.8,3.22551150393624,-1.91096017318396
2.5,90,-148.7,3.27943436553821,-1.80878890282502
2.5,90,-148.6,3.33007007054269,-1.70514017192011
2.5,90,-148.5,3.37737929826927,-1.60012208631317
2.5,90,-148.4,3.42132631742681,-1.49384377546239
2.5,90,-148.3,3.46187901937576,-1.38641527065569
2.5,90,-148.2,3.49900894781826,-1.27794738166276
2.5,90,-148.1,3.53269132476229,-1.16855157191526
2.5,90,-148,3.56290507260151,-1.05833983232101
2.5,90,-147.9,3.58963283214908,-0.947424553832706
2.5,90,-147.8,3.61286097646304,-0.835918398907012
2.5,90,-147.7,3.63257962030124,-0.723934172005023
2.5,90,-147.6,3.64878262504708,-0.61158468930115
2.5,90,-147.5,3.66146759895192,-0.498982647782289
2.5,90,-147.4,3.67063589254693,-0.386240493935168
2.5,90,-147.3,3.67629258908644,-0.273470292233576
2.5,90,-147.2,3.67844648989549,-0.160783593651974
2.5,90,-147.1,3.67711009450735,-0.0482913044446067
2.5,90,-147,3.67229957549163,0.063896444558214
2.5,90,-146.9,3.66403474788994,0.175670427874136
2.5,90,-146.8,3.65233903319443,0.286922454240765
2.5,90,-146.7,3.63723941782404,0.397545494155361
2.5,90,-146.6,3.61876640607447,0.507433805795136
2.5,90,-146.5,3.59695396753974,0.616483059026524
2.5,90,-146.4,3.57183947902672,0.724590457208032
2.5,90,-146.3,3.54346366100759,0.831654856491114
2.5,90,-146.2,3.51187050867974,0.937576882323422
2.5,90,-146.1,3.47710721772771,1.04225904286207
2.5,90,-146,3.4392241049062,1.14560583900917
2.5,90,-145.9,3.39827452358865,1.24752387078879
2.5,90,-145.8,3.35431477444993,1.34792193979287
2.5,90,-145.7,3.30740401147605,1.44671114743534
2.5,90,-145.6,3.25760414351701,1.54380498876492
2.5,90,-145.5,3.20497973162101,1.63911944160314
2.5,90,-145.4,3.14959788240971,1.73257305078891
2.5,90,-145.3,3.09152813777397,1.82408700732958
2.5,90,-145.2,3.0308423611875,1.91358522227764
2.5,90,-145.1,2.96761462095296,2.00099439517246
2.5,90,-145,2.90192107070913,2.08624407690899
2.5,90,-144.9,2.83383982754125,2.16926672691734
2.5,90,-144.8,2.76345084804672,2.24999776456166
2.5,90,-144.7,2.69083580271713,2.32837561469078
2.5,90,-144.6,2.61607794900391,2.40434174729769
2.5,90,-144.5,2.53926200343807,2.47784071127092
2.5,90,-144.4,2.4604740131775,2.54882016224492
2.5,90,-144.3,2.37980122735267,2.61723088458284
2.5,90,-144.2,2.29733196857998,2.68302680754908
2.5,90,-144.1,2.21315550500554,2.74616501575375
2.5,90,-144,2.12736192323466,2.80660575397486
2.5,90,-143.9,2.04004200249247,2.86431242648636
2.5,90,-143.8,1.95128709034879,2.91925159104234
2.5,90,-143.7,1.86118898032634,2.97139294768807
2.5,90,-143.6,1.76983979169535,3.02070932258751
2.5,90,-143.5,1.6773318517397,3.06717664707495
2.5,90,-143.4,1.58375758076058,3.11077393215402
2.5,90,-143.3,1.48920938006295,3.15148323868197
2.5,90,-143.2,1.39377952314738,3.18928964348915
2.5,90,-143.1,1.29756005030781,3.22418120169465
2.5,90,-143,1.20064266681038,3.25614890548721
2.5,90,-142.9,1.10311864480553,3.28518663964692
2.5,90,-142.8,1.00507872909866,3.31129113408839
2.5,90,-142.7,0.906613046880741,3.33446191370753
2.5,90,-142.6,0.807811021493995,3.35470124581525
2.5,90,-142.5,0.708761290282321,3.37201408543927
2.5,90,-142.4,0.609551626552463,3.38640801877172
2.5,90,-142.3,0.510268865645935,3.39789320503471
2.5,90,-142.2,0.410998835099091,3.40648231702845
2.5,90,-142.1,0.311826288845968,3.41219048061771
2.5,90,-142,0.212834845396396,3.41503521340112
2.5,90,-141.9,0.114106929902203,3.41503636279595
2.5,90,-141.8,0.0157237200047606,3.41221604375696
2.5,90,-141.7,-0.0822349046597643,3.40659857633308
2.5,90,-141.6,-0.179690409437271,3.3982104232497
2.5,90,-141.5,-0.276565648268408,3.38708012768689
2.5,90,-141.4,-0.372784904102597,3.37323825140683
2.5,90,-141.3,-0.468273926289928,3.3567173133643
2.5,90,-141.2,-0.562959965134958,3.3375517289163
2.5,90,-141.1,-0.656771803803297,3.31577774972683
2.5,90,-141,-0.749639787776123,3.29143340444429
2.5,90,-140.9,-0.841495852049673,3.26455844020935
2.5,90,-140.8,-0.932273546277512,3.2351942650328
2.5,90,-140.7,-1.02190805805166,3.20338389106371
2.5,90,-140.6,-1.11033623451471,3.16917187875133
2.5,90,-140.5,-1.19749660249064,3.13260428188586
2.5,90,-140.4,-1.28332938731355,3.09372859348805
2.5,90,-140.3,-1.36777653052621,3.05259369250168
