"Freq [GHz]","Phi [deg]","Theta [deg]","re(rEX) [V]","im(rEX) [V]"
2.5,90,-180,-2.62362217840096,3.88783612813396
2.5,90,-179.9,-2.91177732891556,3.67730157373475
2.5,90,-179.8,-3.18305497322832,3.44541775946972
2.5,90,-179.7,-3.43587152575231,3.19353949585834
2.5,90,-179.6,-3.66875272094413,2.92313932791934
2.5,90,-179.5,-3.88034239091905,2.63579862914282
2.5,90,-179.4,-4.06941050665965,2.33319803934803
2.5,90,-179.3,-4.2348604337525,2.01710730856557
2.5,90,-179.2,-4.37573535896819,1.68937461273831
2.5,90,-179.1,-4.49122384964946,1.35191541021067
2.5,90,-179,-4.58066451374747,1.00670091064895
2.5,90,-178.9,-4.64354973439676,0.655746230199279
2.5,90,-178.8,-4.67952845910555,0.301098308322875
2.5,90,-178.7,-4.68840802990656,-0.0551763371450026
2.5,90,-178.6,-4.6701550471221,-0.411003939594217
2.5,90,-178.5,-4.62489526569654,-0.764315820738637
2.5,90,-178.4,-4.55291252929605,-1.11306065853591
2.5,90,-178.3,-4.45464675352289,-1.45521661024958
2.5,90,-178.2,-4.33069097559926,-1.78880321646633
2.5,90,-178.1,-4.18178749370038,-2.11189301386009
2.5,90,-178,-4.00882312472015,-2.42262278693147
2.5,90,-177.9,-3.81282361460081,-2.71920439182016
2.5,90,-177.8,-3.59494724041278,-2.99993508857065
2.5,90,-177.7,-3.3564776481062,-3.2632073218874
2.5,90,-177.6,-3.09881597424119,-3.50751789441931
2.5,90,-177.5,-2.82347230401537,-3.73147648092945
2.5,90,-177.4,-2.53205652152527,-3.93381343629647
2.5,90,-177.3,-2.22626861140651,-4.11338685512407
2.5,90,-177.2,-1.90788847377486,-4.26918884576916
2.5,90,-177.1,-1.57876531674038,-4.40035098679211
2.5,90,-177,-1.24080669266344,-4.50614893915549
2.5,90,-176.9,-0.895967245786308,-4.586006192901
2.5,90,-176.8,-0.546237239876405,-4.63949693249381
2.5,90,-176.7,-0.193630935090931,-4.66634801048769
2.5,90,-176.6,0.159825116595803,-4.66644002460851
2.5,90,-176.5,0.512103788361673,-4.63980749873713
2.5,90,-176.4,0.861189039564065,-4.58663817356355
2.5,90,-176.3,1.20508745360584,-4.50727141785192
2.5,90,-176.2,1.54183958690914,-4.40219577626963
2.5,90,-176.1,1.86953106513105,-4.27204567456617
2.5,90,-176,2.18630336495579,-4.11759730751402
2.5,90,-175.9,2.49036422232367,-3.93976373942127
2.5,90,-175.8,2.77999761078342,-3.73958925117196
2.5,90,-175.7,3.05357323674969,-3.51824297162928
2.5,90,-175.6,3.30955550179294,-3.27701183483227
2.5,90,-175.5,3.54651188565735,-3.01729290771271
2.5,90,-175.4,3.76312070746189,-2.74058513605067
2.5,90,-175.3,3.95817822647333,-2.44848055905762
2.5,90,-175.2,4.13060504791066,-2.14265504532743
2.5,90,-175.1,4.27945180343011,-1.824858604918
2.5,90,-175,4.40390408021846,-1.49690533401904
2.5,90,-174.9,4.50328657696463,-1.16066305002859
2.5,90,-174.8,4.57706646936451,-0.818042675896741
2.5,90,-174.7,4.62485597221283,-0.470987433310382
2.5,90,-174.6,4.64641408953071,-0.121461904689182
2.5,90,-174.5,4.64164754854397,0.22855897595441
2.5,90,-174.4,4.61061091764536,0.577100943454908
2.5,90,-174.3,4.5535059127258,0.922201373914805
2.5,90,-174.2,4.47067990042475,1.26192015058613
2.5,90,-174.1,4.36262361091404,1.5943503657661
2.5,90,-174,4.22996807677439,1.9176288025987
2.5,90,-173.9,4.07348081833766,2.22994614225862
2.5,90,-173.8,3.89406129953415,2.52955684382451
2.5,90,-173.7,3.69273568179468,2.8147886461959
2.5,90,-173.6,3.47065090689643,3.08405164367523
2.5,90,-173.5,3.22906814280182,3.33584688929941
2.5,90,-173.4,2.96935562951313,3.56877448265313
2.5,90,-173.3,2.69298096473898,3.78154110172003
2.5,90,-173.2,2.40150287174055,3.97296694130717
2.5,90,-173.1,2.09656249408446,4.14199202370481
2.5,90,-173,1.77987426417072,4.28768185050251
2.5,90,-172.9,1.45321639432351,4.40923236785923
2.5,90,-172.8,1.11842104092586,4.50597422100703
2.5,90,-172.7,0.777364193534645,4.57737627734445
2.5,90,-172.6,0.431955342141094,4.62304840112702
2.5,90,-172.5,0.0841269767199054,4.64274346648264
2.5,90,-172.4,-0.264176026039659,4.63635859924872
2.5,90,-172.3,-0.611007073438427,4.6039356419386
2.5,90,-172.2,-0.954428529268659,4.5456608399772
2.5,90,-172.1,-1.29252233247293,4.46186375119142
2.5,90,-172,-1.62340050656872,4.35301538438203
2.5,90,-171.9,-1.94521550494145,4.21972557662828
2.5,90,-171.8,-2.25617033785804,4.06273962276901
2.5,90,-171.7,-2.5545284280456,3.88293417425067
2.5,90,-171.6,-2.83862314292743,3.68131242821663
2.5,90,-171.5,-3.10686695309531,3.45899863132048
2.5,90,-171.4,-3.35776016832982,3.21723192626353
2.5,90,-171.3,-3.5898992044546,2.95735957246317
2.5,90,-171.2,-3.80198433651562,2.68082957554487
2.5,90,-171.1,-3.99282689621267,2.3891827634966
2.5,90,-171,-4.16135587416947,2.0840443503129
2.5,90,-170.9,-4.3066238905002,1.76711503077744
2.5,90,-170.8,-4.42781250020947,1.44016165266186
2.5,90,-170.7,-4.5242368032357,1.10500751504962
2.5,90,-170.6,-4.59534933240424,0.763522343704129
2.5,90,-170.5,-4.64074319618433,0.417611996376984
2.5,90,-170.4,-4.660154456927,0.0692079526856484
2.5,90,-170.3,-4.65346372918567,-0.279743355342637
2.5,90,-170.2,-4.62069698676889,-0.627291314766194
2.5,90,-170.1,-4.56202557132835,-0.971491947057675
2.5,90,-170,-4.4777653995247,-1.31041870844695
2.5,90,-169.9,-4.36837537011919,-1.64217321614592
2.5,90,-169.8,-4.2344549766872,-1.96489584132973
2.5,90,-169.7,-4.07674113602009,-2.2767761100698
2.5,90,-169.6,-3.89610424664788,-2.57606285406248
2.5,90,-169.5,-3.69354349625497,-2.86107405397262
2.5,90,-169.4,-3.4701814410488,-3.13020631951274
2.5,90,-169.3,-3.22725788434908,-3.38194395201239
2.5,90,-169.2,-2.96612308577221,-3.61486753718429
2.5,90,-169.1,-2.6882303363598,-3.8276620180702
2.5,90,-169,-2.39512793881956,-4.01912420073566
2.5,90,-168.9,-2.08845063568668,-4.18816964816901
2.5,90,-168.8,-1.7699105316435,-4.3338389210209
2.5,90,-168.7,-1.44128755943673,-4.45530312727312
2.5,90,-168.6,-1.10441954177789,-4.55186874664023
2.5,90,-168.5,-0.761191904279326,-4.622981699463
2.5,90,-168.4,-0.413527096851408,-4.66823063402748
2.5,90,-168.3,-0.0633737830370975,-4.68734941061806
2.5,90,-168.2,0.287304141522052,-4.68021876515959
2.5,90,-168.1,0.636538638927675,-4.64686713999849
2.5,90,-168,0.982368663617166,-4.58747067418649
2.5,90,-167.9,1.32285127751913,-4.50235235053589
2.5,90,-167.8,1.6560726813547,-4.39198030167953
2.5,90,-167.7,1.98015909781666,-4.25696528236263
2.5,90,-167.6,2.29328744291185,-4.09805732018417
2.5,90,-167.5,2.59369572270214,-3.91614156195996
2.5,90,-167.4,2.87969309402144,-3.71223333776642
2.5,90,-167.3,3.14966952948564,-3.48747246950798
2.5,90,-167.2,3.40210502922958,-3.24311685550314
2.5,90,-167.1,3.63557832430269,-2.98053536706726
2.5,90,-167,3.84877501950785,-2.70120009735833
2.5,90,-166.9,4.04049512666795,-2.40667800681271
2.5,90,-166.8,4.20965994283396,-2.0986220132986
2.5,90,-166.7,4.35531823177887,-1.7787615786353
2.5,90,-166.6,4.47665167123749,-1.44889284633578
2.5,90,-166.5,4.57297953272405,-1.11086838830376
2.5,90,-166.4,4.64376256535888,-0.766586620740465
2.5,90,-166.3,4.6886060599361,-0.417980951659834
2.5,90,-166.2,4.70726207443092,-0.0670087241694152
2.5,90,-166.1,4.69963080724787,0.284359978973857
2.5,90,-166,4.66576110971509,0.634153603088354
2.5,90,-165.9,4.60585013459967,0.980410394611343
2.5,90,-165.8,4.52024212272015,1.3211896124164
2.5,90,-165.7,4.40942633502787,1.65458261070196
2.5,90,-165.6,4.27403414278415,1.97872372752002
2.5,90,-165.5,4.11483529363766,2.29180091421198
2.5,90,-165.4,3.93273337647349,2.59206604262801
2.5,90,-165.3,3.72876051282392,2.87784482902766
2.5,90,-165.2,3.50407130737077,3.14754631596853
2.5,90,-165.1,3.2599360945965,3.39967185627649
2.5,90,-165,2.99773352292479,3.63282354633503
2.5,90,-164.9,2.71894252170414,3.84571205940895
2.5,90,-164.8,2.42513370010202,4.03716383350688
2.5,90,-164.7,2.11796023036612,4.20612757236175
2.5,90,-164.6,1.79914827095588,4.35168002243734
2.5,90,-164.5,1.47048698772456,4.4730309934263
2.5,90,-164.4,1.13381823363234,4.56952759445434
2.5,90,-164.3,0.791025949369163,4.64065766311877
2.5,90,-164.2,0.444025348761326,4.6860523695282
2.5,90,-164.1,0.0947519539133963,4.70548798264352
2.5,90,-164,-0.254849454307483,4.69888679141044
2.5,90,-163.9,-0.602835904600985,4.66631717838654
2.5,90,-163.8,-0.947277256723266,4.60799284876592
2.5,90,-163.7,-1.28626711108812,4.52427122285667
2.5,90,-163.6,-1.61793354244675,4.41565100513668
2.5,90,-163.5,-1.94044959503522,4.28276894796695
2.5,90,-163.4,-2.25204347837799,4.12639583285047
2.5,90,-163.3,-2.55100840512414,3.94743169675051
2.5,90,-163.2,-2.83571201482231,3.74690033540381
2.5,90,-163.1,-3.10460533041362,3.52594311974832
2.5,90,-163,-3.35623119740646,3.28581216550724
2.5,90,-162.9,-3.5892321591681,3.02786289961167
2.5,90,-162.8,-3.80235772550687,2.75354607047395
2.5,90,-162.7,-3.99447099568761,2.46439925213507
2.5,90,-162.6,-4.16455460120454,2.16203789497302
2.5,90,-162.5,-4.31171593798943,1.84814597797343
2.5,90,-162.4,-4.43519166223458,1.52446631951179
2.5,90,-162.3,-4.53435142862896,1.19279060516737
2.5,90,-162.2,-4.60870085450516,0.854949192284149
2.5,90,-162.1,-4.65788369814755,0.512800751806759
2.5,90,-162,-4.68168324428591,0.168221808346139
2.5,90,-161.9,-4.68002289456018,-0.176903760517226
2.5,90,-161.8,-4.65296596546411,-0.520695205013434
2.5,90,-161.7,-4.60071470092555,-0.861285304057969
2.5,90,-161.6,-4.52360851123227,-1.19683062728357
2.5,90,-161.5,-4.42212145443552,-1.52552160068815
2.5,90,-161.4,-4.29685898063487,-1.84559232008225
2.5,90,-161.3,-4.14855396363988,-2.15533005856442
2.5,90,-161.2,-3.97806204839692,-2.45308441659012
2.5,90,-161.1,-3.78635634623968,-2.73727606581685
2.5,90,-161,-3.5745215134503,-3.00640504078302
2.5,90,-160.9,-3.34374725179062,-3.25905853558328
2.5,90,-160.8,-3.09532127255897,-3.49391816602406
2.5,90,-160.7,-2.83062176833996,-3.70976666124744
2.5,90,-160.6,-2.55110943892805,-3.90549395247937
2.5,90,-160.5,-2.25831911991296,-4.08010263036239
2.5,90,-160.4,-1.95385106411032,-4.23271274624809
2.5,90,-160.3,-1.63936192739878,-4.3625659368245
2.5,90,-160.2,-1.31655551158283,-4.46902885551412
2.5,90,-160.1,-0.987173317640188,-4.55159589817111
2.5,90,-160,-0.652984963132803,-4.60989121471013
2.5,90,-159.9,-0.315778517669785,-4.64367000238517
2.5,90,-159.8,0.0226491898926607,-4.65281908048616
2.5,90,-159.7,0.360502239329916,-4.63735675020614
2.5,90,-159.6,0.695995209615619,-4.59743194733374
2.5,90,-159.5,1.0273626408629,-4.53332269922274
2.5,90,-159.4,1.35286831766856,-4.44543390116225
2.5,90,-159.3,1.67081432549248,-4.3342944308003
2.5,90,-159.2,1.97954983354534,-4.20055362264271
2.5,90,-159.1,2.27747955972645,-4.0449771278423
2.5,90,-159,2.56307187543553,-3.86844218749587
2.5,90,-158.9,2.83486651054724,-3.67193235046914
2.5,90,-158.8,3.09148182149138,-3.45653166935401
2.5,90,-158.7,3.33162158817939,-3.2234184105276
2.5,90,-158.6,3.55408130846159,-2.97385831641375
2.5,90,-158.5,3.75775396186014,-2.70919745994055
2.5,90,-158.4,3.94163521748244,-2.43085473283888
2.5,90,-158.3,4.10482806426332,-2.14031401082926
2.5,90,-158.2,4.24654684498803,-1.8391160398985
2.5,90,-158.1,4.36612067889621,-1.52885008877381
2.5,90,-158,4.46299626104172,-1.21114541335307
2.5,90,-157.9,4.5367400299621,-0.887662579263224
2.5,90,-157.8,4.58703969858395,-0.560084688877099
2.5,90,-157.7,4.61370514663306,-0.230108559044587
2.5,90,-157.6,4.61666867611812,0.100564104517355
2.5,90,-157.5,4.59598463469783,0.430235490773178
2.5,90,-157.4,4.55182841490757,0.757220380211347
2.5,90,-157.3,4.48449484030012,1.07985471131328
2.5,90,-157.2,4.39439595253157,1.39650397415662
2.5,90,-157.1,4.28205821628567,1.70557139003423
2.5,90,-157,4.14811916166629,2.00550583752533
2.5,90,-156.9,3.99332348628795,2.29480948718366
2.5,90,-156.8,3.81851864174692,2.57204510889792
2.5,90,-156.7,3.62464993145398,2.83584301801913
2.5,90,-156.6,3.41275514894402,3.08490762852524
2.5,90,-156.5,3.1839587877409,3.31802358379646
2.5,90,-156.4,2.93946585564449,3.5340614379845
2.5,90,-156.3,2.68055532790947,3.73198286347372
2.5,90,-156.2,2.40857327520613,3.91084536252676
2.5,90,-156.1,2.12492570347976,4.06980646387785
2.5,90,-156,1.83107114386187,4.20812738776513
2.5,90,-155.9,1.52851303162697,4.32517616566681
2.5,90,-155.8,1.2187919138349,4.42043020381323
2.5,90,-155.7,0.903477525747448,4.49347828237256
2.5,90,-155.6,0.584160776364159,4.54402198504068
2.5,90,-155.5,0.262445683481364,4.5718765565922
2.5,90,-155.4,-0.0600587014487499,4.57697118875653
2.5,90,-155.3,-0.381746338704213,4.55934873756039
2.5,90,-155.2,-0.701022176471603,4.51916487801073
2.5,90,-155.1,-1.01631001904847,4.45668670467161
2.5,90,-155,-1.32606024916365,4.37229078930076
2.5,90,-154.9,-1.62875736753689,4.26646070924777
2.5,90,-154.8,-1.92292731399647,4.13978406276439
2.5,90,-154.7,-2.20714453582334,3.99294898972799
2.5,90,-154.6,-2.48003877049232,3.82674021852378
2.5,90,-154.5,-2.74030151162498,3.64203466195779
2.5,90,-154.4,-2.98669212874362,3.43979658707739
2.5,90,-154.3,-3.21804361331937,3.22107238564436
2.5,90,-154.2,-3.43326792562273,2.98698497373653
2.5,90,-154.1,-3.63136091900695,2.73872785053648
2.5,90,-154,-3.81140682047264,2.4775588477948
2.5,90,-153.9,-3.97258224866235,2.20479360272687
2.5,90,-153.8,-4.11415975281095,1.92179878820815
2.5,90,-153.7,-4.23551085861523,1.62998513507179
2.5,90,-153.6,-4.33610860947468,1.33080028208123
2.5,90,-153.5,-4.41552959408634,1.02572148973979
2.5,90,-153.4,-4.47345545393044,0.716248254521906
2.5,90,-153.3,-4.5096738667581,0.40389486034484
2.5,90,-153.2,-4.52407900476743,0.0901829041642163
2.5,90,-153.1,-4.51667146872215,-0.223366167539453
2.5,90,-153,-4.48755770181456,-0.535238474910338
2.5,90,-152.9,-4.43694888958993,-0.843935037493662
2.5,90,-152.8,-4.36515935472013,-1.14797898827143
2.5,90,-152.7,-4.27260445783015,-1.44592263439519
2.5,90,-152.6,-4.15979801792941,-1.73635433102379
2.5,90,-152.5,-4.02734926826913,-2.01790513580619
2.5,90,-152.4,-3.87595936562902,-2.28925521282825
2.5,90,-152.3,-3.70641747311735,-2.54913995627434
2.5,90,-152.2,-3.51959643854083,-2.79635580562079
2.5,90,-152.1,-3.3164480922548,-3.0297657258772
2.5,90,-152,-3.09799819012892,-3.24830432821338
2.5,90,-151.9,-2.86534102885522,-3.45098260824186
2.5,90,-151.8,-2.61963376227064,-3.63689228126494
2.5,90,-151.7,-2.36209044866335,-3.80520969592308
2.5,90,-151.6,-2.09397586017189,-3.95519930989329
2.5,90,-151.5,-1.81659908636402,-4.08621671356763
2.5,90,-151.4,-1.53130696489461,-4.19771118998121
2.5,90,-151.3,-1.23947737278397,-4.28922780164551
2.5,90,-151.2,-0.942512412326301,-4.36040899736372
2.5,90,-151.1,-0.641831525934196,-4.41099573454548
2.5,90,-151,-0.338864574342097,-4.44082811499049
2.5,90,-150.9,-0.0350449125380388,-4.44984553455583
2.5,90,-150.8,0.26819750244103,-4.43808634955339
2.5,90,-150.7,0.569442938116896,-4.4056870651244
2.5,90,-150.6,0.867288614421822,-4.35288105319752
2.5,90,-150.5,1.16035530037641,-4.27999680994319
2.5,90,-150.4,1.44729374807607,-4.18745576487646
2.5,90,-150.3,1.72679093352795,-4.07576965592371
2.5,90,-150.2,1.99757607508759,-3.94553748684277
2.5,90,-150.1,2.25842640159507,-3.79744208536163
2.5,90,-150,2.50817264379686,-3.63224628226696
2.5,90,-149.9,2.74570422424911,-3.45078873342239
2.5,90,-149.8,2.96997412262826,-3.25397940831696
2.5,90,-149.7,3.18000339520894,-3.04279477023009
2.5,90,-149.6,3.37488532919973,-2.81827267444404
2.5,90,-149.5,3.5537892146454,-2.58150701212814
2.5,90,-149.4,3.71596371869152,-2.33364212856305
2.5,90,-149.3,3.86073984916176,-2.07586704525299
2.5,90,-149.2,3.98753349659808,-1.80940951619612
2.5,90,-149.1,4.0958475461525,-1.53552994913859
2.5,90,-149,4.18527355298453,-1.25551522302413
2.5,90,-148.9,4.25549297709106,-0.970672433076931
2.5,90,-148.8,4.30627797577401,-0.682322595003762
2.5,90,-148.7,4.33749175421115,-0.391794339694872
2.5,90,-148.6,4.34908847683421,-0.10041762952274
2.5,90,-148.5,4.34111274441851,0.190482473097749
2.5,90,-148.4,4.31369864393872,0.479591954816326
2.5,90,-148.3,4.26706838033727,0.765613888799784
2.5,90,-148.2,4.20153050137098,1.04727433209808
2.5,90,-148.1,4.11747772863963,1.32332805552584
2.5,90,-148,4.01538440974628,1.59256407982704
2.5,90,-147.9,3.89580360828553,1.85381099317955
2.5,90,-147.8,3.7593638499919,2.10594202650369
2.5,90,-147.7,3.60676554489998,2.34787986455257
2.5,90,-147.6,3.43877710676414,2.57860117237191
2.5,90,-147.5,3.25623079224981,2.79714081841669
2.5,90,-147.4,3.06001828353934,3.00259577738498
2.5,90,-147.3,2.85108603898388,3.19412869767158
2.5,90,-147.2,2.63043043727975,3.37097112023803
2.5,90,-147.1,2.39909274134629,3.53242633763519
2.5,90,-147,2.15815390863445,3.67787188388457
2.5,90,-146.9,1.90872927499667,3.806761647916
2.5,90,-146.8,1.65196313950283,3.91862760525937
2.5,90,-146.7,1.38902327769005,4.01308116468696
2.5,90,-146.6,1.12109541069379,4.08981412848712
2.5,90,-146.5,0.84937765752024,4.1485992670121
2.5,90,-146.4,0.575074997394856,4.18929051006813
2.5,90,-146.3,0.299393768657024,4.21182275959884
2.5,90,-146.2,0.0235362300769662,4.21621132993967
2.5,90,-146.1,-0.251304790250169,4.20255102368499
2.5,90,-146,-0.523951134119973,4.17101485290131
2.5,90,-145.9,-0.793244417183655,4.12185241703035
2.5,90,-145.8,-1.05805097536249,4.05538795034973
2.5,90,-145.7,-1.31726663256935,3.9720180532866
2.5,90,-145.6,-1.56982126984192,3.87220912320778
2.5,90,-145.5,-1.81468317732082,3.75649450153056
2.5,90,-145.4,-2.05086317190518,3.62547135510938
2.5,90,-145.3,-2.27741846488176,3.47979731084836
2.5,90,-145.2,-2.49345626533992,3.32018686336744
2.5,90,-145.1,-2.6981371067448,3.14740757630698
2.5,90,-145,-2.8906778856366,2.96227609848937
2.5,90,-144.9,-3.07035460304185,2.76565401666989
2.5,90,-144.8,-3.23650480081918,2.5584435669959
2.5,90,-144.7,-3.3885296868022,2.34158322756052
2.5,90,-144.6,-3.52589594423979,2.11604321458208
2.5,90,-144.5,-3.64813722266128,1.8828209047641
2.5,90,-144.4,-3.75485530889669,1.64293620630329
2.5,90,-144.3,-3.84572097856118,1.39742690080364
2.5,90,-144.2,-3.92047452984953,1.14734397804505
2.5,90,-144.1,-3.97892600298278,0.893746985132461
2.5,90,-144,-4.02095509009176,0.637699411032514
2.5,90,-143.9,-4.04651074170678,0.380264126891293
2.5,90,-143.8,-4.05561047734459,0.122498901821203
2.5,90,-143.7,-4.04833940893367,-0.134547986941417
2.5,90,-143.6,-4.02484898699634,-0.389842031469426
2.5,90,-143.5,-3.98535548060276,-0.642366641065289
2.5,90,-143.4,-3.93013820312644,-0.891127144560415
2.5,90,-143.3,-3.85953749675952,-1.13515463193819
2.5,90,-143.2,-3.77395248958479,-1.37350962132758
2.5,90,-143.1,-3.67383863975101,-1.60528553855487
2.5,90,-143,-3.55970508195357,-1.82961199762058
2.5,90,-142.9,-3.4321117919868,-2.04565787166868
2.5,90,-142.8,-3.29166658560337,-2.25263414524157
2.5,90,-142.7,-3.13902196829332,-2.44979653984778
2.5,90,-142.6,-2.97487185287981,-2.63644790611068
2.5,90,-142.5,-2.79994816202077,-2.81194037700782
2.5,90,-142.4,-2.61501733281162,-2.97567727793922
2.5,90,-142.3,-2.42087674069883,-3.12711479058437
2.5,90,-142.2,-2.21835105984751,-3.2657633687031
2.5,90,-142.1,-2.00828857695757,-3.39118890520795
2.5,90,-142,-1.79155747529412,-3.50301365097761
2.5,90,-141.9,-1.56904210539915,-3.6009168869839
2.5,90,-141.8,-1.34163925857716,-3.68463535237091
2.5,90,-141.7,-1.11025445881175,-3.7539634321431
2.5,90,-141.6,-0.875798288271012,-3.80875310909001
2.5,90,-141.5,-0.639182761002566,-3.84891368549441
2.5,90,-141.4,-0.401317758813748,-3.87441128103403
2.5,90,-141.3,-0.163107542675918,-3.88526811409349
2.5,90,-141.2,0.0745526477033561,-3.88156157444988
2.5,90,-141.1,0.310779894229616,-3.86342309598078
2.5,90,-141,0.544706789548218,-3.83103683866647
2.5,90,-140.9,0.775484504593039,-3.78463818971759
2.5,90,-140.8,1.00228572501822,-3.72451209415529
2.5,90,-140.7,1.22430744780168,-3.65099122560236
2.5,90,-140.6,1.44077363015203,-3.56445400841191
2.5,90,-140.5,1.65093768370025,-3.46532250256467
2.5,90,-140.4,1.85408480780727,-3.35406016300929
2.5,90,-140.3,2.04953415667141,-3.23116948530068
