"Freq [GHz]","Phi [deg]","Theta [deg]","re(rEX) [V]","im(rEX) [V]"
2.5,90,-180,-1.75556650505658,3.49809828490917
2.5,90,-179.9,-1.52629762299135,3.60430184109831
2.5,90,-179.8,-1.29057617875143,3.69552334879773
2.5,90,-179.7,-1.04937990525533,3.77136491965806
2.5,90,-179.6,-0.803711988091982,3.83149252049855
2.5,90,-179.5,-0.554596883503396,3.8756377170251
2.5,90,-179.4,-0.303076003700048,3.90359914129578
2.5,90,-179.3,-0.0502032880600156,3.91524367152596
2.5,90,-179.2,0.202959320138216,3.9105073141144
2.5,90,-179.1,0.455346470796513,3.88939577917597
2.5,90,-179,0.705894056344579,3.85198474237701
2.5,90,-178.9,0.953543891028783,3.7984197874771
2.5,90,-178.8,1.19724839717303,3.72891602567589
2.5,90,-178.7,1.43597527493464,3.64375738963376
2.5,90,-178.6,1.66871213172089,3.54329560186816
2.5,90,-178.5,1.89447104723126,3.42794881910898
2.5,90,-178.4,2.1122930500494,3.29819995611352
2.5,90,-178.3,2.32125248183941,3.15459469437572
2.5,90,-178.2,2.52046122549654,2.99773918310455
2.5,90,-178.1,2.70907277407341,2.82829744177108
2.5,90,-178,2.88628611794405,2.64698847541999
2.5,90,-177.9,3.05134942847717,2.45458311579243
2.5,90,-177.8,3.20356351746827,2.25190060309356
2.5,90,-177.7,3.34228505271655,2.03980492494852
2.5,90,-177.6,3.46692951142355,1.81920093070523
2.5,90,-177.5,3.57697385452757,1.59103024074867
2.5,90,-177.4,3.67195890665918,1.35626697187438
2.5,90,-177.3,3.75149142809788,1.11591330101774
2.5,90,-177.2,3.81524586691842,0.870994890731616
2.5,90,-177.1,3.86296578141654,0.622556200749725
2.5,90,-177,3.89446492489164,0.371655710741352
2.5,90,-176.9,3.90962798691305,0.11936107996683
2.5,90,-176.8,3.90841098729957,-0.133255730046631
2.5,90,-176.7,3.89084132117305,-0.385123343454404
2.5,90,-176.6,3.85701745559478,-0.635175842272168
2.5,90,-176.5,3.80710828043605,-0.882357596535254
2.5,90,-176.4,3.7413521182572,-1.12562802652083
2.5,90,-176.3,3.66005540005102,-1.36396627163935
2.5,90,-176.2,3.56359101573363,-1.59637574129685
2.5,90,-176.1,3.45239635021781,-1.8218885239067
2.5,90,-176,3.32697101776717,-2.03956963126745
2.5,90,-175.9,3.18787430908897,-2.24852105671888
2.5,90,-175.8,3.03572236726218,-2.44788562683277
2.5,90,-175.7,2.87118511010598,-2.63685062786726
2.5,90,-175.6,2.6949829179594,-2.81465118980908
2.5,90,-175.5,2.50788310705316,-2.98057341252744
2.5,90,-175.4,2.31069620970602,-3.13395722035031
2.5,90,-175.3,2.10427208345769,-3.27419893323715
2.5,90,-175.2,1.88949587195793,-3.40075354463826
2.5,90,-175.1,1.66728384096134,-3.51313669808811
2.5,90,-175,1.43857911312672,-3.61092635655887
2.5,90,-174.9,1.20434732549355,-3.69376416058133
2.5,90,-174.8,0.965572233500786,-3.76135647311193
2.5,90,-174.7,0.723251285235439,-3.81347511106349
2.5,90,-174.6,0.478391189251745,-3.84995776531219
2.5,90,-174.5,0.232003498791845,-3.87070811282654
2.5,90,-174.4,-0.0148997654197556,-3.87569562632116
2.5,90,-174.3,-0.261310432442422,-3.86495508850697
2.5,90,-174.2,-0.506228418016178,-3.83858581957575
2.5,90,-174.1,-0.74866586171578,-3.7967506280112
2.5,90,-174,-0.987651146153747,-3.73967449615106
2.5,90,-173.9,-1.222232781279,-3.66764301312614
2.5,90,-173.8,-1.45148313815675,-3.58100056886768
2.5,90,-173.7,-1.67450201801203,-3.48014832379755
2.5,90,-173.6,-1.89042004376994,-3.36554196959426
2.5,90,-173.5,-2.09840186280721,-3.23768929705921
2.5,90,-173.4,-2.2976491511286,-3.09714758759319
2.5,90,-173.3,-2.48740341068719,-2.94452084513228
2.5,90,-173.2,-2.66694855305825,-2.78045688559069
2.5,90,-173.1,-2.83561326414446,-2.6056443009184
2.5,90,-173,-2.99277314601947,-2.42080931481021
2.5,90,-172.9,-3.1378526333953,-2.22671254690755
2.5,90,-172.8,-3.2703266835155,-2.02414570202469
2.5,90,-172.7,-3.38972223952298,-1.81392820051125
2.5,90,-172.6,-3.49561946851454,-1.59690376535292
2.5,90,-172.5,-3.58765277657268,-1.37393698101031
2.5,90,-172.4,-3.66551160404576,-1.14590983833021
2.5,90,-172.3,-3.72894100523352,-0.913718279125549
2.5,90,-172.2,-3.77774201741492,-0.678268753244163
2.5,90,-172.1,-3.81177182483335,-0.440474800127601
2.5,90,-172,-3.8309437238274,-0.201253666020604
2.5,90,-171.9,-3.83522689576487,0.038477032858887
2.5,90,-171.8,-3.82464599480687,0.277802591733295
2.5,90,-171.7,-3.79928055780024,0.515814434644776
2.5,90,-171.6,-3.75926424377595,0.751613260004185
2.5,90,-171.5,-3.70478391062371,0.984312107298475
2.5,90,-171.4,-3.63607853652736,1.21303933869163
2.5,90,-171.3,-3.55343799368723,1.43694152995466
2.5,90,-171.2,-3.45720168173562,1.65518626580238
2.5,90,-171.1,-3.34775702807773,1.86696483529777
2.5,90,-171,-3.22553786217223,2.07149482350533
2.5,90,-170.9,-3.09102267051525,2.26802259602357
2.5,90,-170.8,-2.94473273881576,2.45582567341203
2.5,90,-170.7,-2.78723018756261,2.63421499283881
2.5,90,-170.6,-2.61911590689188,2.80253705452025
2.5,90,-170.5,-2.44102739637731,2.96017595070269
2.5,90,-170.4,-2.25363651509782,3.10655527504977
2.5,90,-170.3,-2.0576471470897,3.24113991035716
2.5,90,-170.2,-1.85379278707825,3.36343769251872
2.5,90,-170.1,-1.64283405120957,3.47300094862525
2.5,90,-170,-1.42555611737396,3.56942790699487
2.5,90,-169.9,-1.2027660996358,3.6523639768187
2.5,90,-169.8,-0.975290361259987,3.72150289496989
2.5,90,-169.7,-0.743971770860382,3.77658773737171
2.5,90,-169.6,-0.509666906289163,3.81741179216516
2.5,90,-169.5,-0.273243211038726,3.84381929176487
2.5,90,-169.4,-0.0355761081424322,3.85570600075442
2.5,90,-169.3,0.202453923172646,3.85301965645821
2.5,90,-169.2,0.439964302500883,3.83576025894419
2.5,90,-169.1,0.676073328989242,3.80398020717011
2.5,90,-169,0.909903181414212,3.75778427799249
2.5,90,-168.9,1.1405829307764,3.69732944481933
2.5,90,-168.8,1.36725155809938,3.62282453281177
2.5,90,-168.7,1.58906096960767,3.53452970773125
2.5,90,-168.6,1.80517900093535,3.43275579579212
2.5,90,-168.5,2.0147924014878,3.31786343221767
2.5,90,-168.4,2.2171097895543,3.19026203661417
2.5,90,-168.3,2.41136456826138,3.05040861377095
2.5,90,-168.2,2.5968177919726,2.89880637906757
2.5,90,-168.1,2.77276097229201,2.73600320831827
2.5,90,-168,2.93851881242819,2.56258991260553
2.5,90,-167.9,3.09345185832507,2.3791983394506
2.5,90,-167.8,3.23695905468806,2.18649930252308
2.5,90,-167.7,3.36848019382252,1.98520034301088
2.5,90,-167.6,3.48749824507644,1.77604332673814
2.5,90,-167.5,3.59354155264235,1.55980188212915
2.5,90,-167.4,3.68618588953041,1.3372786851615
2.5,90,-167.3,3.76505635568575,1.10930259851745
2.5,90,-167.2,3.82982910848609,0.876725673225763
2.5,90,-167.1,3.88023291422989,0.64042002216546
2.5,90,-167,3.91605050970756,0.4012745758772
2.5,90,-166.9,3.93711976354179,0.160191732178994
2.5,90,-166.8,3.94333462768743,-0.081916087902489
2.5,90,-166.7,3.93464587029166,-0.324129964401409
2.5,90,-166.6,3.9110615820315,-0.565528068486222
2.5,90,-166.5,3.87264744906009,-0.805189303097499
2.5,90,-166.4,3.81952678680221,-1.04219697814407
2.5,90,-166.3,3.75188033003388,-1.2756425035802
2.5,90,-166.2,3.66994577595371,-1.5046290831111
2.5,90,-166.1,3.57401707829453,-1.7282753908097
2.5,90,-166,3.46444349192288,-1.94571921258009
2.5,90,-165.9,3.34162836881976,-2.15612103417609
2.5,90,-165.8,3.20602770781652,-2.358667557389
2.5,90,-165.7,3.05814846196243,-2.55257512605401
2.5,90,-165.6,2.89854660891267,-2.73709304369752
2.5,90,-165.5,2.72782499123222,-2.91150676495834
2.5,90,-165.4,2.54663093500219,-3.07514094336228
2.5,90,-165.3,2.35565365657256,-3.22736231861495
2.5,90,-165.2,2.1556214687194,-3.36758242729511
2.5,90,-165.1,1.94729879882032,-3.49526012167896
2.5,90,-165,1.73148303294665,-3.60990388239784
2.5,90,-164.9,1.50900120097303,-3.71107391172245
2.5,90,-164.8,1.28070651891307,-3.7983839954659
2.5,90,-164.7,1.04747480569167,-3.87150312279971
2.5,90,-164.6,0.810200792453306,-3.93015685466763
2.5,90,-164.5,0.569794343268941,-3.97412843295397
2.5,90,-164.4,0.327176606739362,-4.00325962410145
2.5,90,-164.3,0.0832761184875598,-4.01745129246817
2.5,90,-164.2,-0.160975125112092,-4.01666370034857
2.5,90,-164.1,-0.40464560141167,-4.00091653324763
2.5,90,-164,-0.646808183558882,-3.97028865067546
2.5,90,-163.9,-0.886544029628642,-3.92491756440782
2.5,90,-163.8,-1.12294641852632,-3.8649986478222
2.5,90,-163.7,-1.35512451275405,-3.79078408155501
2.5,90,-163.6,-1.58220702865603,-3.70258154232021
2.5,90,-163.5,-1.80334579542593,-3.60075264326757
2.5,90,-163.4,-2.01771918494891,-3.48571113573232
2.5,90,-163.3,-2.22453539547766,-3.35792088361706
2.5,90,-163.2,-2.42303557317386,-3.217893622949
2.5,90,-163.1,-2.61249675669097,-3.06618652035409
2.5,90,-163,-2.79223463121512,-2.90339954527789
2.5,90,-162.9,-2.96160607970284,-2.73017267175389
2.5,90,-162.8,-3.12001152045529,-2.54718292636243
2.5,90,-162.7,-3.26689702162394,-2.35514129973829
2.5,90,-162.6,-3.40175618475139,-2.15478953955965
2.5,90,-162.5,-3.52413179098918,-1.94689684339039
2.5,90,-162.4,-3.63361720519589,-1.73225647004587
2.5,90,-162.3,-3.72985753468749,-1.51168228830716
2.5,90,-162.2,-3.81255054097398,-1.28600528182624
2.5,90,-162.1,-3.88144730435836,-1.05607002894401
2.5,90,-162,-3.93635264278612,-0.822731175886085
2.5,90,-161.9,-3.97712528779886,-0.586849921419248
2.5,90,-161.8,-4.00367782185701,-0.349290530541484
2.5,90,-161.7,-4.01597638264043,-0.110916894155483
2.5,90,-161.6,-4.01404014120255,0.127410849056652
2.5,90,-161.5,-3.99794056203514,0.36483961317279
2.5,90,-161.4,-3.96780045418791,0.600526573518874
2.5,90,-161.3,-3.92379282357311,0.83364226964283
2.5,90,-161.2,-3.86613953746483,1.06337359037943
2.5,90,-161.1,-3.79510981297021,1.28892662973688
2.5,90,-161,-3.71101854190211,1.50952940350867
2.5,90,-160.9,-3.61422446501853,1.72443441771674
2.5,90,-160.8,-3.50512820901034,1.93292108122076
2.5,90,-160.7,-3.38417019991781,2.13429795606315
2.5,90,-160.6,-3.25182846683811,2.32790484035461
2.5,90,-160.5,-3.10861634985292,2.51311467972717
2.5,90,-160.4,-2.95508012606236,2.68933530457875
2.5,90,-160.3,-2.7917965674615,2.85601099149795
2.5,90,-160.2,-2.6193704441454,3.01262384837829
2.5,90,-160.1,-2.43843198598456,3.15869502379856
2.5,90,-160,-2.2496343154809,3.29378574225439
2.5,90,-159.9,-2.05365086400515,3.41749816776481
2.5,90,-159.8,-1.85117278303484,3.52947609924478
2.5,90,-159.7,-1.64290636137095,3.62940550182088
2.5,90,-159.6,-1.4295704586173,3.71701487897122
2.5,90,-159.5,-1.21189396446926,3.79207549098821
2.5,90,-159.4,-0.990613292591565,3.85440142579109
2.5,90,-159.3,-0.766469917070926,3.90384952855475
2.5,90,-159.2,-0.540207958625929,3.94031919697126
2.5,90,-159.1,-0.312571826948089,3.9637520492215
2.5,90,-159,-0.0843039247430201,3.97413147190965
2.5,90,-158.9,0.143857581742887,3.97148205530416
2.5,90,-158.8,0.371180921695984,3.95586892324119
2.5,90,-158.7,0.596942804925677,3.92739696498285
2.5,90,-158.6,0.820430430686691,3.88620997618975
2.5,90,-158.5,1.04094341820253,3.83248971597083
2.5,90,-158.4,1.25779565756094,3.76645488671996
2.5,90,-158.3,1.47031708020303,3.68836004314503
2.5,90,-158.2,1.67785534871775,3.59849443654912
2.5,90,-158.1,1.87977746608211,3.49718080004276
2.5,90,-158,2.07547130485532,3.38477407995748
2.5,90,-157.9,2.26434705713323,3.26166011830507
2.5,90,-157.8,2.44583860630818,3.12825429068824
2.5,90,-157.7,2.61940482184954,2.98500010362717
2.5,90,-157.6,2.78453077842907,2.83236775483044
2.5,90,-157.5,2.94072890076353,2.67085265951261
2.5,90,-157.4,3.08754003553613,2.50097394545536
2.5,90,-157.3,3.22453445169563,2.32327291912701
2.5,90,-157.2,3.35131277031779,2.13831150482497
2.5,90,-157.1,3.46750682505606,1.94667065849188
2.5,90,-157,3.57278045401217,1.74894875758195
2.5,90,-156.9,3.66683022362591,1.54575996812728
2.5,90,-156.8,3.74938608492842,1.33773258997208
2.5,90,-156.7,3.82021196222544,1.12550738101369
2.5,90,-156.6,3.87910627398722,0.90973586121191
2.5,90,-156.5,3.92590238542546,0.691078597101917
2.5,90,-156.4,3.96046899194108,0.470203467576897
2.5,90,-156.3,3.98271043233793,0.247783911784222
2.5,90,-156.2,3.99256693042226,0.0244971601123643
2.5,90,-156.1,3.99001476335255,-0.198977550575521
2.5,90,-156,3.97506635487541,-0.421960776080332
2.5,90,-155.9,3.94777029138613,-0.643774676729353
2.5,90,-155.8,3.90821125859197,-0.863744840008807
2.5,90,-155.7,3.85650989643765,-1.08120211167641
2.5,90,-155.6,3.79282256987926,-1.29548443269717
2.5,90,-155.5,3.71734105306814,-1.50593867896013
2.5,90,-155.4,3.63029212453406,-1.71192250032857
2.5,90,-155.3,3.53193707103769,-1.91280615516541
2.5,90,-155.2,3.42257109789813,-2.10797433605832
2.5,90,-155.1,3.30252264379327,-2.29682798205646
2.5,90,-155,3.17215259827647,-2.47878607232928
2.5,90,-154.9,3.03185342055532,-2.65328739576979
2.5,90,-154.8,2.88204815843144,-2.81979229070299
2.5,90,-154.7,2.72318936670449,-2.9777843485251
2.5,90,-154.6,2.55575792479615,-3.12677207480002
2.5,90,-154.5,2.38026175384381,-3.26629050108124
2.5,90,-154.4,2.1972344340506,-3.39590274051316
2.5,90,-154.3,2.00723372364635,-3.51520148010409
2.5,90,-154.2,1.81083998141434,-3.62381040245379
2.5,90,-154.1,1.60865449536125,-3.7213855296683
2.5,90,-154,1.40129772074807,-3.80761648220488
2.5,90,-153.9,1.18940743135252,-3.88222764546276
2.5,90,-153.8,0.973636788489423,-3.944979237074
2.5,90,-153.7,0.754652332970581,-3.99566826805134
2.5,90,-153.6,0.533131905832423,-4.03412939121959
2.5,90,-153.5,0.309762504288183,-4.06023563069103
2.5,90,-153.4,0.0852380799730542,-4.07389898654305
2.5,90,-153.3,-0.139742712873291,-4.07507090931686
2.5,90,-153.2,-0.364478811096008,-4.06374263947466
2.5,90,-153.1,-0.588269069492783,-4.03994540752865
2.5,90,-153,-0.810414611711355,-4.00375049118209
2.5,90,-152.9,-1.03022119562274,-3.95526912649858
2.5,90,-152.8,-1.24700158327109,-3.89465227083306
2.5,90,-152.7,-1.46007790521495,-3.82209021601394
2.5,90,-152.6,-1.66878400885459,-3.73781205105245
2.5,90,-152.5,-1.87246778018922,-3.6420849744671
2.5,90,-152.4,-2.07049342836606,-3.53521345714274
2.5,90,-152.3,-2.26224372237618,-3.41753825748608
2.5,90,-152.2,-2.44712216931791,-3.28943529148787
2.5,90,-152.1,-2.62455512378889,-3.15131436114845
2.5,90,-152,-2.79399381818393,-3.00361774556001
2.5,90,-151.9,-2.95491630396285,-2.84681865976203
2.5,90,-151.8,-3.10682929431488,-2.68141958728373
2.5,90,-151.7,-3.24926989907585,-2.50795049305821
2.5,90,-151.6,-3.38180724325199,-2.32696692412657
2.5,90,-151.5,-3.50404396106623,-2.13904800624198
2.5,90,-151.4,-3.61561755806339,-1.94479434512866
2.5,90,-151.3,-3.71620163448681,-1.74482584174232
2.5,90,-151.2,-3.80550696386622,-1.53977943141104
2.5,90,-151.1,-3.88328242152683,-1.33030675720873
2.5,90,-151,-3.94931575854119,-1.11707178831607
2.5,90,-150.9,-4.00343421748682,-0.900748394462396
2.5,90,-150.8,-4.04550498724376,-0.682017887803176
2.5,90,-150.7,-4.07543549495426,-0.461566543779085
2.5,90,-150.6,-4.09317353416993,-0.240083112616001
2.5,90,-150.5,-4.09870722912006,-0.0182563331626296
2.5,90,-150.4,-4.09206483594277,0.203227539274826
2.5,90,-150.3,-4.07331438262123,0.423687179557649
2.5,90,-150.2,-4.04256315025361,0.642448602444423
2.5,90,-150.1,-3.99995699915105,0.858847524333296
2.5,90,-150,-3.94567954409637,1.07223166625816
2.5,90,-149.9,-3.87995118390202,1.28196298777963
2.5,90,-149.8,-3.80302799117216,1.48741984187817
2.5,90,-149.7,-3.71520046889631,1.68799904148197
2.5,90,-149.6,-3.61679218117521,1.88311782884277
2.5,90,-149.5,-3.50815826599897,2.07221573960746
2.5,90,-149.4,-3.38968383855978,2.25475635410967
2.5,90,-149.3,-3.26178229408204,2.43022892912671
2.5,90,-149.2,-3.12489351958886,2.5981499041006
2.5,90,-149.1,-2.97948202439496,2.75806427660387
2.5,90,-149,-2.82603499941602,2.90954684263882
2.5,90,-148.9,-2.66506031561846,3.05220329817725
2.5,90,-148.8,-2.49708447209307,3.18567119918416
2.5,90,-148.7,-2.32265050432932,3.3096207782014
2.5,90,-148.6,-2.1423158632866,3.42375561640419
2.5,90,-148.5,-1.95665027581162,3.52781317086792
2.5,90,-148.4,-1.76623359683648,3.62156515759439
2.5,90,-148.3,-1.57165366361078,3.70481779163924
2.5,90,-148.2,-1.37350416197816,3.77741188644845
2.5,90,-148.1,-1.17238251440483,3.83922281524846
2.5,90,-148,-0.968887799107632,3.89016033803563
2.5,90,-147.9,-0.763618709218378,3.93016829837233
2.5,90,-147.8,-0.557171560460203,3.95922419481524
2.5,90,-147.7,-0.350138355307326,3.97733863237248
2.5,90,-147.6,-0.143104911057393,3.98455465990696
2.5,90,-147.5,0.0633509413335073,3.98094699987142
2.5,90,-147.4,0.268661081407967,3.96662117717308
2.5,90,-147.3,0.472268740743566,3.94171255432273
2.5,90,-147.2,0.673630056903584,3.90638528032047
2.5,90,-147.1,0.872215535500186,3.86083116097077
2.5,90,-147,1.0675114167389,3.80526845849962
2.5,90,-146.9,1.25902094348614,3.73994062846929
2.5,90,-146.8,1.44626552857246,3.66511500205065
2.5,90,-146.7,1.62878581970816,3.58108142172071
2.5,90,-146.6,1.80614266103894,3.4881508384062
2.5,90,-146.5,1.97791795100484,3.38665387799345
2.5,90,-146.4,2.14371539677772,3.27693938497509
2.5,90,-146.3,2.30316116614358,3.15937295080458
2.5,90,-146.2,2.45590443825415,3.03433543428698
2.5,90,-146.1,2.60161785520082,2.90222148104981
2.5,90,-146,2.73999787685685,2.76343804881449
2.5,90,-145.9,2.87076504188821,2.61840294483353
2.5,90,-145.8,2.99366413824894,2.46754338147083
2.5,90,-145.7,3.1084642868496,2.31129455549046
2.5,90,-145.6,3.21495894241746,2.15009825618484
2.5,90,-145.5,3.31296581585239,1.98440150702051
2.5,90,-145.4,3.40232672262267,1.81465524501555
2.5,90,-145.3,3.48290736194046,1.64131304158713
2.5,90,-145.2,3.55459703160627,1.46482986812937
2.5,90,-145.1,3.61730828351766,1.28566090910102
2.5,90,-145,3.67097652489882,1.10426042492578
2.5,90,-144.9,3.71555957032691,0.921080666538774
2.5,90,-144.8,3.75103714960945,0.736570842952694
2.5,90,-144.7,3.77741037650597,0.551176142772546
2.5,90,-144.6,3.79470118318932,0.36533681016054
2.5,90,-144.5,3.80295172520956,0.179487275343077
2.5,90,-144.4,3.80222376155858,-0.00594466062939245
2.5,90,-144.3,3.79259801423987,-0.190538587522644
2.5,90,-144.2,3.77417351152755,-0.373882194940318
2.5,90,-144.1,3.74706691885542,-0.555571930013837
2.5,90,-144,3.71141186101305,-0.735213605318969
2.5,90,-143.9,3.66735823904568,-0.912422958817865
2.5,90,-143.8,3.61507154496065,-1.08682616783416
2.5,90,-143.7,3.55473217703902,-1.2580603192437
2.5,90,-143.6,3.48653475823963,-1.4257738382051
2.5,90,-143.5,3.41068745986815,-1.58962687786413
2.5,90,-143.4,3.32741133236794,-1.74929167254065
2.5,90,-143.3,3.23693964477671,-1.90445285695205
2.5,90,-143.2,3.139517234085,-2.05480775404009
2.5,90,-143.1,3.03539986543343,-2.20006663395039
2.5,90,-143,2.92485360379622,-2.33995294667051
2.5,90,-142.9,2.80815419752403,-2.47420353075817
2.5,90,-142.8,2.68558647385824,-2.60256880049662
2.5,90,-142.7,2.55744374628651,-2.72481291369345
2.5,90,-142.6,2.42402723338664,-2.84071392219844
2.5,90,-142.5,2.2856454886019,-2.95006390705882
2.5,90,-142.4,2.14261384021256,-3.05266910005325
2.5,90,-142.3,1.99525384060932,-3.14834999315953
2.5,90,-142.2,1.84389272384203,-3.23694143731072
2.5,90,-142.1,1.68886287030822,-3.31829273158631
2.5,90,-142,1.53050127736198,-3.39226770377193
2.5,90,-141.9,1.36914903456512,-3.45874478300315
2.5,90,-141.8,1.20515080226773,-3.5176170649913
2.5,90,-141.7,1.0388542921963,-3.56879237011232
2.5,90,-141.6,0.870609748740804,-3.61219329442673
2.5,90,-141.5,0.700769429668899,-3.64775725349258
2.5,90,-141.4,0.529687085054984,-3.67543651863409
2.5,90,-141.3,0.357717433290161,-3.69519824514087
2.5,90,-141.2,0.185215633138409,-3.70702449169637
2.5,90,-141.1,0.0125367509210002,-3.71091223017136
2.5,90,-141,-0.159964777957174,-3.7068733447716
2.5,90,-140.9,-0.331935693776957,-3.69493461939773
2.5,90,-140.8,-0.503024464049816,-3.67513771196279
2.5,90,-140.7,-0.672881842146638,-3.64753911431869
2.5,90,-140.6,-0.84116143314029,-3.61221009636804
2.5,90,-140.5,-1.0075202668072,-3.56923663288327
2.5,90,-140.4,-1.17161937754162,-3.51871931152051
2.5,90,-140.3,-1.33312439074545,-3.4607732205022
2.5,90,-140.2,-1.49170611506284,-3.395527814449
