"Freq [GHz]","Phi [deg]","Theta [deg]","re(rEX) [V]","im(rEX) [V]"
2.5,90,-180,-1.93133114212333,3.59525247125729
2.5,90,-179.9,-1.85420856967555,3.63597227344551
2.5,90,-179.8,-1.77629629168302,3.67502562874563
2.5,90,-179.7,-1.69763360106424,3.71240144999308
2.5,90,-179.6,-1.61825959691089,3.74808965589216
2.5,90,-179.5,-1.53821313188004,3.78208111699443
2.5,90,-179.4,-1.45753276579997,3.81436759892747
2.5,90,-179.3,-1.3762567258771,3.84494170361594
2.5,90,-179.2,-1.29442287380845,3.87379680926052
2.5,90,-179.1,-1.21206868001631,3.90092700985425
2.5,90,-179,-1.12923120513131,3.9263270550198
2.5,90,-178.9,-1.04594708875813,3.9499922909457
2.5,90,-178.8,-0.962252545464952,3.97191860318389
2.5,90,-178.7,-0.878183367845887,3.99210236204605
2.5,90,-178.6,-0.793774936415196,4.01054037130142
2.5,90,-178.5,-0.709062236004386,4.02722982083575
2.5,90,-178.4,-0.624079878250819,4.04216824387882
2.5,90,-178.3,-0.538862129687226,4.05535347934885
2.5,90,-178.2,-0.453442944870697,4.0667836397949
2.5,90,-178.1,-0.367856003924371,4.07645708534607
2.5,90,-178,-0.282134753808154,4.08437240399786
2.5,90,-177.9,-0.196312452587455,4.09052839848346
2.5,90,-177.8,-0.110422215929426,4.09492407989217
2.5,90,-177.7,-0.0244970650280522,4.09755866810911
2.5,90,-177.6,0.0614300248593668,4.09843159906099
2.5,90,-177.5,0.147326076089781,4.0975425386641
2.5,90,-177.4,0.233158061348754,4.09489140328209
2.5,90,-177.3,0.318892858210518,4.09047838641614
2.5,90,-177.2,0.404497206329969,4.08430399126708
2.5,90,-177.1,0.489937668017402,4.07636906873177
2.5,90,-177,0.575180592904671,4.06667486032289
2.5,90,-176.9,0.660192087356335,4.05522304543562
2.5,90,-176.8,0.744937989220008,4.04201579232541
2.5,90,-176.7,0.829383848439309,4.02705581210999
2.5,90,-176.6,0.913494913976612,4.01034641506648
2.5,90,-176.5,0.997236127412008,3.99189156846079
2.5,90,-176.4,1.08057212349562,3.97169595512335
2.5,90,-176.3,1.1634672378417,3.9497650319707
2.5,90,-176.2,1.24588552185786,3.92610508766952
2.5,90,-176.1,1.32779076490926,3.90072329864535
2.5,90,-176,1.40914652362175,3.87362778265542
2.5,90,-175.9,1.48991615813384,3.8448276491711
2.5,90,-175.8,1.57006287501642,3.81433304585169
2.5,90,-175.7,1.64954977649002,3.78215520043603
2.5,90,-175.6,1.72833991548609,3.74830645743274
2.5,90,-175.5,1.8063963560205,3.71280030905083
2.5,90,-175.4,1.88368223827585,3.67565141988174
2.5,90,-175.3,1.96016084772549,3.6368756449184
2.5,90,-175.2,2.03579568757666,3.59649004057767
2.5,90,-175.1,2.11055055376331,3.5545128684768
2.5,90,-175,2.18438961168345,3.51096359180272
2.5,90,-174.9,2.2572774738482,3.46586286420282
2.5,90,-174.8,2.32917927759492,3.41923251121727
2.5,90,-174.7,2.40006076201102,3.37109550436331
2.5,90,-174.6,2.46988834322085,3.32147592807226
2.5,90,-174.5,2.53862918720497,3.27039893976649
2.5,90,-174.4,2.60625127934743,3.21789072344804
2.5,90,-174.3,2.67272348994472,3.16397843724904
2.5,90,-174.2,2.73801563495658,3.10869015546815
2.5,90,-174.1,2.80209853133539,3.05205480568397
2.5,90,-174,2.86494404633564,2.99410210159613
2.5,90,-173.9,2.92652514027672,2.93486247229669
2.5,90,-173.8,2.98681590231237,2.87436698871666
2.5,90,-173.7,3.04579157884386,2.81264728802691
2.5,90,-173.6,3.10342859430398,2.74973549679571
2.5,90,-173.5,3.1597045641321,2.68566415371942
2.5,90,-173.4,3.21459829985495,2.62046613274672
2.5,90,-173.3,3.26808980628519,2.55417456740943
2.5,90,-173.2,3.32016027094534,2.48682277715704
2.5,90,-173.1,3.37079204592017,2.41844419646491
2.5,90,-173,3.41996862243259,2.34907230744994
2.5,90,-172.9,3.46767459852743,2.27874057668201
2.5,90,-172.8,3.51389564033065,2.20748239682601
2.5,90,-172.7,3.55861843743038,2.13533103368657
2.5,90,-172.6,3.6018306529966,2.06231957915951
2.5,90,-172.5,3.64352086932042,1.98848091051795
2.5,90,-172.4,3.683678529508,1.91384765638179
2.5,90,-172.3,3.72229387611032,1.83845216963301
2.5,90,-172.2,3.75935788750545,1.76232650745253
2.5,90,-172.1,3.79486221287567,1.68550241856368
2.5,90,-172,3.82879910663649,1.60801133767639
2.5,90,-171.9,3.86116136317884,1.52988438703556
2.5,90,-171.8,3.89194225277921,1.45115238488718
2.5,90,-171.7,3.92113545951474,1.37184586058917
2.5,90,-171.6,3.94873502199283,1.29199507600947
2.5,90,-171.5,3.97473527766664,1.21163005277566
2.5,90,-171.4,3.99913081146002,1.13078060486652
2.5,90,-171.3,4.02191640936917,1.04947637596897
2.5,90,-171.2,4.04308701764306,0.967746880963668
2.5,90,-171.1,4.06263770807225,0.885621550851693
2.5,90,-171,4.0805636498368,0.803129780390384
2.5,90,-170.9,4.0968600882794,0.720300977673909
2.5,90,-170.8,4.11152233088061,0.637164614868618
2.5,90,-170.7,4.12454574062097,0.553750279299627
2.5,90,-170.6,4.13592573681976,0.470087724080436
2.5,90,-170.5,4.14565780344495,0.386206917482948
2.5,90,-170.4,4.15373750479279,0.302138090261602
2.5,90,-170.3,4.16016050834214,0.217911780170288
2.5,90,-170.2,4.16492261449643,0.133558872946145
2.5,90,-170.1,4.16801979283864,0.0491106390784302
2.5,90,-170,4.16944822444152,-0.0354012342672601
2.5,90,-169.9,4.16920434969794,-0.119944616737928
2.5,90,-169.8,4.16728492106579,-0.204486914197305
2.5,90,-169.7,4.16368706005896,-0.288995054472997
2.5,90,-169.6,4.1584083177614,-0.373435479795828
2.5,90,-169.5,4.1514467380958,-0.457774146197612
2.5,90,-169.4,4.1428009230428,-0.54197653004651
2.5,90,-169.3,4.13247009898043,-0.626007641811563
2.5,90,-169.2,4.12045418329841,-0.709832047057306
2.5,90,-169.1,4.10675385043669,-0.793413894580268
2.5,90,-169,4.09137059650332,-0.876716951510901
2.5,90,-168.9,4.0743068016425,-0.959704645117305
2.5,90,-168.8,4.05556578935022,-1.04234011096512
2.5,90,-168.7,4.03515188197054,-1.12458624700853
2.5,90,-168.6,4.01307045165139,-1.20640577311419
2.5,90,-168.5,3.98932796609281,-1.28776129545257
2.5,90,-168.4,3.96393202848291,-1.36861537513072
2.5,90,-168.3,3.93689141108684,-1.44893060038788
2.5,90,-168.2,3.90821608202962,-1.52866966163107
2.5,90,-168.1,3.87791722489599,-1.60779542855214
2.5,90,-168,3.84600725085565,-1.68627102854194
2.5,90,-167.9,3.81249980311272,-1.76405992559971
2.5,90,-167.8,3.77740975356898,-1.84112599892989
2.5,90,-167.7,3.7407531916839,-1.91743362042068
2.5,90,-167.6,3.70254740560706,-1.9929477302115
2.5,90,-167.5,3.66281085575025,-2.06763390957887
2.5,90,-167.4,3.62156314105596,-2.14145845040109
2.5,90,-167.3,3.57882495830485,-2.21438842050316
2.5,90,-167.2,3.53461805488662,-2.2863917242312
2.5,90,-167.1,3.48896517553441,-2.35743715766285
2.5,90,-167,3.44189000359323,-2.42749445792297
2.5,90,-166.9,3.39341709745534,-2.49653434614354
2.5,90,-166.8,3.3435718228502,-2.56452856368227
2.5,90,-166.7,3.292380281723,-2.63144990129341
2.5,90,-166.6,3.23986923847302,-2.69727222102729
2.5,90,-166.5,3.1860660443502,-2.76197047072094
2.5,90,-166.4,3.13099856082709,-2.82552069102832
2.5,90,-166.3,3.07469508276999,-2.88790001502662
2.5,90,-166.2,3.01718426223199,-2.94908666052107
2.5,90,-166.1,2.95849503367773,-3.00905991525594
2.5,90,-166,2.89865654142788,-3.06780011532129
2.5,90,-165.9,2.83769807008002,-3.1252886171233
2.5,90,-165.8,2.77564897862179,-3.18150776335995
2.5,90,-165.7,2.7125386389033,-3.23644084351185
2.5,90,-165.6,2.64839637907848,-3.29007204941985
2.5,90,-165.5,2.58325143256105,-3.34238642657616
2.5,90,-165.4,2.51713289297019,-3.39336982180238
2.5,90,-165.3,2.45006967546464,-3.44300882802719
2.5,90,-165.2,2.38209048478368,-3.49129072690655
2.5,90,-165.1,2.31322379022869,-3.53820343005052
2.5,90,-165,2.24349780773288,-3.58373541963301
2.5,90,-164.9,2.17294048907786,-3.6278756891635
2.5,90,-164.8,2.10157951822781,-3.67061368519309
2.5,90,-164.7,2.02944231466355,-3.71193925071179
2.5,90,-164.6,1.95655604351283,-3.7518425709689
2.5,90,-164.5,1.88294763218978,-3.79031412241538
2.5,90,-164.4,1.80864379317676,-3.82734462542489
2.5,90,-164.3,1.73367105250693,-3.86292500140171
2.5,90,-164.2,1.65805578343655,-3.8970463348265
2.5,90,-164.1,1.58182424473304,-3.92969984072894
2.5,90,-164,1.50500262294911,-3.96087683800723
2.5,90,-163.9,1.42761707800517,-3.99056872894177
2.5,90,-163.8,1.3496937913628,-4.01876698517295
2.5,90,-163.7,1.27125901604068,-4.04546314033328
2.5,90,-163.6,1.19233912770331,-4.07064878944163
2.5,90,-163.5,1.11296067603905,-4.09431559508481
2.5,90,-163.4,1.03315043564303,-4.11645530032792
2.5,90,-163.3,0.95293545562454,-4.13705974821337
2.5,90,-163.2,0.872343107176013,-4.15612090762753
2.5,90,-163.1,0.791401128364605,-4.17363090523679
2.5,90,-163,0.710137665441134,-4.18958206312097
2.5,90,-162.9,0.628581310003365,-4.20396694166253
2.5,90,-162.8,0.546761131399772,-4.21677838718644
2.5,90,-162.7,0.464706703817575,-4.22800958378755
2.5,90,-162.6,0.382448127561352,-4.23765410873119
2.5,90,-162.5,0.300016044098189,-4.24570599076913
2.5,90,-162.4,0.217441644519546,-4.25215977067663
2.5,90,-162.3,0.134756671147189,-4.25701056328878
2.5,90,-162.2,0.0519934120921947,-4.26025412029473
2.5,90,-162.1,-0.03081531134097,-4.26188689303743
2.5,90,-162,-0.113636164429459,-4.26190609456479
2.5,90,-161.9,-0.196435325925278,-4.26030976018429
2.5,90,-161.8,-0.279178521923032,-4.25709680578879
2.5,90,-161.7,-0.361831066476489,-4.2522670832442
2.5,90,-161.6,-0.444357908659324,-4.24582143216201
2.5,90,-161.5,-0.52672368569058,-4.23776172741832
2.5,90,-161.4,-0.608892781674064,-4.22809092182782
2.5,90,-161.3,-0.690829391436125,-4.21681308343428
2.5,90,-161.2,-0.772497588886609,-4.20393342693772
2.5,90,-161.1,-0.853861399275125,-4.18945833884337
2.5,90,-161,-0.934884874669907,-4.1733953959857
2.5,90,-160.9,-1.01553217194821,-4.15575337715373
2.5,90,-160.8,-1.09576763255851,-4.13654226761915
2.5,90,-160.7,-1.17555586329343,-4.11577325644596
2.5,90,-160.6,-1.25486181730013,-4.09345872653898
2.5,90,-160.5,-1.33365087455135,-4.06961223746726
2.5,90,-160.4,-1.41188892100568,-4.04424850117634
2.5,90,-160.3,-1.48954242569892,-4.01738335077992
2.5,90,-160.2,-1.56657851503155,-3.9890337026953
2.5,90,-160.1,-1.64296504354677,-3.95921751245822
2.5,90,-160,-1.71867066053287,-3.92795372461895
2.5,90,-159.9,-1.79366487182782,-3.89526221718433
2.5,90,-159.8,-1.86791809625742,-3.86116374112647
2.5,90,-159.7,-1.94140171619577,-3.82567985553011
2.5,90,-159.6,-2.01408812180079,-3.78883285899453
2.5,90,-159.5,-2.08595074854603,-3.75064571794323
2.5,90,-159.4,-2.15696410774184,-3.71114199252458
2.5,90,-159.3,-2.22710380981442,-3.67034576080868
2.5,90,-159.2,-2.29634658018885,-3.62828154200042
2.5,90,-159.1,-2.36467026770029,-3.58497421939502
2.5,90,-159,-2.43205384553776,-3.54044896380069
2.5,90,-158.9,-2.49847740480198,-3.4947311581443
2.5,90,-158.8,-2.56392214083766,-3.44784632395829
2.5,90,-158.7,-2.62837033257465,-3.39982005042263
2.5,90,-158.6,-2.69180531518481,-3.35067792660418
2.5,90,-158.5,-2.75421144642984,-3.30044547749694
2.5,90,-158.4,-2.81557406713899,-3.24914810442215
2.5,90,-158.3,-2.87587945631409,-3.19681103029639
2.5,90,-158.2,-2.93511478141234,-3.14345925022049
2.5,90,-158.1,-2.9932680444036,-3.08911748778137
2.5,90,-158,-3.05032802423888,-3.03381015739503
2.5,90,-157.9,-3.10628421639854,-2.97756133295217
2.5,90,-157.8,-3.16112677021463,-2.92039472295754
2.5,90,-157.7,-3.21484642467834,-2.86233365228392
2.5,90,-157.6,-3.26743444345336,-2.80340105058926
2.5,90,-157.5,-3.31888254981765,-2.74361944737374
2.5,90,-157.4,-3.36918286224928,-2.68301097358258
2.5,90,-157.3,-3.41832783135896,-2.62159736959083
2.5,90,-157.2,-3.46631017884969,-2.55939999933909
2.5,90,-157.1,-3.51312283915578,-2.49643987032493
2.5,90,-157,-3.55875890437801,-2.43273765909413
2.5,90,-156.9,-3.60321157308974,-2.36831374181974
2.5,90,-156.8,-3.64647410354131,-2.30318822950531
2.5,90,-156.7,-3.68853977173716,-2.23738100730277
2.5,90,-156.6,-3.72940183480201,-2.1709117773951
2.5,90,-156.5,-3.76905349999156,-2.10380010485987
2.5,90,-156.4,-3.80748789963738,-2.03606546590241
2.5,90,-156.3,-3.84469807224863,-1.96772729782631
2.5,90,-156.2,-3.88067694992366,-1.89880505009545
2.5,90,-156.1,-3.91541735215412,-1.82931823583461
2.5,90,-156,-3.9489119860333,-1.75928648311613
2.5,90,-155.9,-3.98115345281046,-1.6887295853871
2.5,90,-155.8,-4.01213426066323,-1.61766755040562
2.5,90,-155.7,-4.04184684349366,-1.54612064707522
2.5,90,-155.6,-4.07028358548835,-1.47410944959339
2.5,90,-155.5,-4.09743685112246,-1.40165487836308
2.5,90,-155.4,-4.1232990202296,-1.32877823715459
2.5,90,-155.3,-4.14786252770707,-1.25550124604901
2.5,90,-155.2,-4.17111990737827,-1.18184606974218
2.5,90,-155.1,-4.19306383949157,-1.10783534084118
2.5,90,-155,-4.21368720129872,-1.03349217784036
2.5,90,-154.9,-4.23298312012571,-0.958840197523402
2.5,90,-154.8,-4.2509450283252,-0.883903521598431
2.5,90,-154.7,-4.26756671948278,-0.808706777435491
2.5,90,-154.6,-4.2828424052389,-0.733275092839753
2.5,90,-154.5,-4.29676677208512,-0.657634084856607
2.5,90,-154.4,-4.30933503749651,-0.581809842668891
2.5,90,-154.3,-4.32054300477236,-0.505828904707807
2.5,90,-154.2,-4.33038711597367,-0.429718230160019
2.5,90,-154.1,-4.33886450236921,-0.353505165111232
2.5,90,-154,-4.3459730318305,-0.277217403621595
2.5,90,-153.9,-4.35171135265074,-0.20088294408033
2.5,90,-153.8,-4.35607893330262,-0.124530041234236
2.5,90,-153.7,-4.35907609769411,-0.0481871543283248
2.5,90,-153.6,-4.36070405553049,0.0281171081645884
2.5,90,-153.5,-4.36096492744294,0.104354046715887
2.5,90,-153.4,-4.35986176459992,0.180494931276217
2.5,90,-153.3,-4.3573985625754,0.256511063614129
2.5,90,-153.2,-4.35358026930803,0.332373840881856
2.5,90,-153.1,-4.3484127870466,0.40805481982151
2.5,90,-153,-4.3419029682388,0.483525781021084
2.5,90,-152.9,-4.33405860538225,0.558758792630713
2.5,90,-152.8,-4.32488841491765,0.633726272957886
2.5,90,-152.7,-4.31440201530383,0.708401051373455
2.5,90,-152.6,-4.30260989947237,0.782756426979272
2.5,90,-152.5,-4.28952340191489,0.856766224513088
2.5,90,-152.4,-4.27515466070839,0.930404846995166
2.5,90,-152.3,-4.25951657483334,1.00364732465587
2.5,90,-152.2,-4.24262275718367,1.07646935972169
2.5,90,-152.1,-4.22448748370882,1.14884736667948
2.5,90,-152,-4.20512563916349,1.22075850768495
2.5,90,-151.9,-4.1845526599718,1.29218072282957
2.5,90,-151.8,-4.16278447473764,1.36309275503188
2.5,90,-151.7,-4.13983744295326,1.43347416937205
2.5,90,-151.6,-4.11572829247211,1.50330536674269
2.5,90,-151.5,-4.09047405632059,1.57256759174489
2.5,90,-151.4,-4.06409200942592,1.64124293481323
2.5,90,-151.3,-4.03659960583449,1.70931432860898
2.5,90,-151.2,-4.00801441698628,1.77676553877528
2.5,90,-151.1,-3.97835407159665,1.84358114920061
2.5,90,-151,-3.94763619767736,1.90974654198859
2.5,90,-150.9,-3.91587836720425,1.97524787238006
2.5,90,-150.8,-3.88309804390941,2.04007203892038
2.5,90,-150.7,-3.84931253464204,2.10420664920674
2.5,90,-150.6,-3.81453894470461,2.16763998158993
2.5,90,-150.5,-3.77879413752892,2.23036094324033
2.5,90,-150.4,-3.74209469901284,2.29235902501821
2.5,90,-150.3,-3.70445690679031,2.35362425361589
2.5,90,-150.2,-3.66589670465845,2.41414714146026
2.5,90,-150.1,-3.62642968233366,2.47391863488159
2.5,90,-150,-3.58607106065653,2.53293006106674
2.5,90,-149.9,-3.54483568231209,2.59117307432121
2.5,90,-149.8,-3.50273800807866,2.64863960216706
2.5,90,-149.7,-3.45979211856544,2.70532179180064
2.5,90,-149.6,-3.4160117213472,2.76121195742569
2.5,90,-149.5,-3.37141016335329,2.81630252896548
2.5,90,-149.4,-3.32600044831965,2.87058600263938
2.5,90,-149.3,-3.2797952590657,2.92405489386861
2.5,90,-149.2,-3.23280698431381,2.97670169294939
2.5,90,-149.1,-3.18504774972883,3.02851882390228
2.5,90,-149,-3.1365294528167,3.07949860687383
2.5,90,-148.9,-3.0872638012887,3.1296332244294
2.5,90,-148.8,-3.03726235446697,3.17891469203806
2.5,90,-148.7,-2.98653656728264,3.22733483300793
2.5,90,-148.6,-2.93509783639608,3.27488525808782
2.5,90,-148.5,-2.88295754795273,3.32155734990537
2.5,90,-148.4,-2.83012712647646,3.36734225236614
2.5,90,-148.3,-2.77661808439502,3.41223086509098
2.5,90,-148.2,-2.72244207169024,3.45621384292263
2.5,90,-148.1,-2.6676109251681,3.49928160048475
2.5,90,-148,-2.61213671685058,3.54142432173133
2.5,90,-147.9,-2.5560318010035,3.58263197437857
2.5,90,-147.8,-2.49930885932977,3.62289432906791
2.5,90,-147.7,-2.44198094387817,3.662200983067
2.5,90,-147.6,-2.3840615172416,3.70054138827548
2.5,90,-147.5,-2.32556448964625,3.73790488326549
2.5,90,-147.4,-2.26650425256451,3.774280729052
2.5,90,-147.3,-2.20689570851819,3.80965814825726
2.5,90,-147.2,-2.14675429677542,3.84402636730505
2.5,90,-147.1,-2.08609601468353,3.87737466125642
2.5,90,-147,-2.02493743442122,3.90969240087757
2.5,90,-146.9,-1.96329571499572,3.94096910151376
2.5,90,-146.8,-1.90118860935413,3.97119447332985
2.5,90,-146.7,-1.83863446652263,4.00035847246941
2.5,90,-146.6,-1.77565222873147,4.02845135267919
2.5,90,-146.5,-1.71226142352841,4.055463716945
2.5,90,-146.4,-1.64848215092731,4.08138656868756
2.5,90,-146.3,-1.58433506568148,4.10621136207461
2.5,90,-146.2,-1.51984135481334,4.12993005101561
2.5,90,-146.1,-1.45502271057239,4.15253513641984
2.5,90,-146,-1.38990129903158,4.17401971131686
2.5,90,-145.9,-1.32449972456837,4.19437750345885
2.5,90,-145.8,-1.25884099051043,4.21360291504868
2.5,90,-145.7,-1.1929484562565,4.23169105926449
2.5,90,-145.6,-1.12684579121083,4.2486377932806
2.5,90,-145.5,-1.06055692589397,4.26443974751659
2.5,90,-145.4,-0.99410600061409,4.27909435087938
2.5,90,-145.3,-0.927517312100292,4.2925998517986
2.5,90,-145.2,-0.860815258513617,4.30495533489172
2.5,90,-145.1,-0.794024283261562,4.31616073313277
2.5,90,-145,-0.727168818048434,4.32621683543631
2.5,90,-144.9,-0.66027322559697,4.33512528960668
2.5,90,-144.8,-0.593361742475427,4.34288860064046
2.5,90,-144.7,-0.526458422459892,4.34951012440821
2.5,90,-144.6,-0.459587080853823,4.35499405677825
2.5,90,-144.5,-0.392771240174473,4.3593454182819
2.5,90,-144.4,-0.326034077602358,4.36257003445378
2.5,90,-144.3,-0.259398374570579,4.36467451201496
2.5,90,-144.2,-0.192886468851316,4.3656662110974
2.5,90,-144.1,-0.126520209472394,4.36555321373834
2.5,90,-144,-0.0603209147712483,4.36434428890022
2.5,90,-143.9,0.00569066613435093,4.36204885429652
2.5,90,-143.8,0.0714943882097814,4.35867693532637
2.5,90,-143.7,0.137070741483891,4.35423912144019
2.5,90,-143.6,0.202400877961587,4.34874652027511
2.5,90,-143.5,0.267466634318637,4.34221070991288
2.5,90,-143.4,0.332250550263117,4.33464368962356
2.5,90,-143.3,0.396735882483414,4.32605782946581
2.5,90,-143.2,0.460906614138338,4.31646581911946
2.5,90,-143.1,0.524747459879861,4.30588061632727
2.5,90,-143,0.588243866434595,4.29431539532149
2.5,90,-142.9,0.651382008803479,4.28178349560646
2.5,90,-142.8,0.71414878217326,4.26829837146099
2.5,90,-142.7,0.776531789664999,4.25387354251442
2.5,90,-142.6,0.838519326075276,4.23852254573753
2.5,90,-142.5,0.900100357795407,4.22225888917422
2.5,90,-142.4,0.961264499119957,4.20509600772245
2.5,90,-142.3,1.02200198518181,4.18704722125354
2.5,90,-142.2,1.08230364177319,4.16812569533678
2.5,90,-142.1,1.14216085233264,4.14834440481364
2.5,90,-142,1.20156552239568,4.12771610044062
2.5,90,-141.9,1.26051004182225,4.10625327879354
2.5,90,-141.8,1.31898724512661,4.08396815559923
2.5,90,-141.7,1.37699037024515,4.060872642632
2.5,90,-141.6,1.43451301608479,4.03697832828389
2.5,90,-141.5,1.49154909919895,4.01229646188838
2.5,90,-141.4,1.54809280993975,3.98683794184811
2.5,90,-141.3,1.6041385684338,3.9606133075879
2.5,90,-141.2,1.6596809807255,3.93363273532551
2.5,90,-141.1,1.71471479542519,3.90590603762421
2.5,90,-141,1.76923486119092,3.87744266666351
2.5,90,-140.9,1.82323608536122,3.84825172113782
2.5,90,-140.8,1.87671339404307,3.81834195666706
2.5,90,-140.7,1.92966169394378,3.78772179957894
2.5,90,-140.6,1.98207583621797,3.75639936389981
2.5,90,-140.5,2.0339505825819,3.72438247136946
2.5,90,-140.4,2.08528057392648,3.69167867427601
2.5,90,-140.3,2.13606030163827,3.65829528088888
2.5,90,-140.2,2.18628408181467,3.62423938325222
