"Freq [GHz]","Phi [deg]","Theta [deg]","re(rEX) [V]","im(rEX) [V]"
2.5,90,-180,-2.0194013006812,3.6301864356265
2.5,90,-179.9,-1.81967560372374,3.73408145261439
2.5,90,-179.8,-1.61461879235559,3.82705160231406
2.5,90,-179.7,-1.40482087197665,3.90882299558458
2.5,90,-179.6,-1.19088613981481,3.97915279730652
2.5,90,-179.5,-0.973431649018966,4.0378300137271
2.5,90,-179.4,-0.753085624071177,4.08467621522888
2.5,90,-179.3,-0.530485828764368,4.11954619085675
2.5,90,-179.2,-0.306277888330586,4.14232853074878
2.5,90,-179.1,-0.0811135676821836,4.15294613246362
2.5,90,-179,0.144350991860295,4.15135662708679
2.5,90,-178.9,0.369457074534445,4.1375527209331
2.5,90,-178.8,0.593545227511262,4.11156244864957
2.5,90,-178.7,0.815957129905241,4.07344933356427
2.5,90,-178.6,1.03603748914526,4.02331245122486
2.5,90,-178.5,1.25313595992688,3.96128639222931
2.5,90,-178.4,1.46660908045968,3.88754112067131
2.5,90,-178.3,1.6758222202294,3.80228172480313
2.5,90,-178.2,1.88015153301099,3.70574805686302
2.5,90,-178.1,2.07898590841267,3.59821425941653
2.5,90,-178,2.27172891480352,3.47998817602306
2.5,90,-177.9,2.45780072608557,3.3514106445567
2.5,90,-177.8,2.63664002442732,3.21285467207919
2.5,90,-177.7,2.80770587077854,3.06472449078003
2.5,90,-177.6,2.97047953474745,2.90745449515836
2.5,90,-177.5,3.12446627524379,2.74150806131662
2.5,90,-177.4,3.26919706317958,2.56737624996246
2.5,90,-177.3,3.40423023747713,2.38557639546592
2.5,90,-177.2,3.52915308566757,2.19665058408211
2.5,90,-177.1,3.64358334046839,2.00116402522553
2.5,90,-177,3.74717058391533,1.79970332045259
2.5,90,-176.9,3.83959755088336,1.59287463557857
2.5,90,-176.8,3.92058132417369,1.38130178209927
2.5,90,-176.7,3.98987441375755,1.16562421481473
2.5,90,-176.6,4.0472657132568,0.946494953244032
2.5,90,-176.5,4.09258132730301,0.724578435067021
2.5,90,-176.4,4.1256852640416,0.500548310436327
2.5,90,-176.3,4.14647998773835,0.275085186545016
2.5,90,-176.2,4.15490682719032,0.0488743323236019
2.5,90,-176.1,4.15094623643956,-0.177396646445929
2.5,90,-176,4.13461790512678,-0.403040150966438
2.5,90,-175.9,4.10598071669776,-0.627370941313457
2.5,90,-175.8,4.06513255357791,-0.849708485293847
2.5,90,-175.7,4.01220994935326,-1.06937929309362
2.5,90,-175.6,3.94738758892957,-1.28571922652041
2.5,90,-175.5,3.87087765857657,-1.49807577172183
2.5,90,-175.4,3.78292904869333,-1.70581026442113
2.5,90,-175.3,3.68382641304325,-1.90830005696235
2.5,90,-175.2,3.57388908909552,-2.10494061678978
2.5,90,-175.1,3.45346988496495,-2.29514754640238
2.5,90,-175,3.32295373925509,-2.47835851531943
2.5,90,-174.9,3.18275626087474,-2.65403509515983
2.5,90,-174.8,3.03332215660479,-2.82166448957647
2.5,90,-174.7,2.87512355483703,-2.9807611514853
2.5,90,-174.6,2.70865823448215,-3.13086828078415
2.5,90,-174.5,2.53444776854352,-3.27155919656053
2.5,90,-174.4,2.35303559227658,-3.40243857863078
2.5,90,-174.3,2.16498500619132,-3.52314357413006
2.5,90,-174.2,1.97087712440979,-3.63334476577268
2.5,90,-174.1,1.77130877905758,-3.7327469993163
2.5,90,-174,1.56689039144652,-3.82109006868523
2.5,90,-173.9,1.35824382079915,-3.89814925812426
2.5,90,-173.8,1.14600020116867,-3.96373574166122
2.5,90,-173.7,0.930797777031163,-4.0176968410401
2.5,90,-173.6,0.713279747765571,-4.05991614414307
2.5,90,-173.5,0.494092130898926,-4.09031348673843
2.5,90,-173.4,0.273881653585777,-4.10884480116535
2.5,90,-173.3,0.0532936813112789,-4.11550183628986
2.5,90,-173.2,-0.167029807729723,-4.11031175373125
2.5,90,-173.1,-0.386452194718714,-4.09333660596082
2.5,90,-173,-0.604344131545704,-4.06467270240875
2.5,90,-172.9,-0.820085384848053,-4.02444987017774
2.5,90,-172.8,-1.03306660692532,-3.97283061634998
2.5,90,-172.7,-1.2426910284359,-3.91000919918455
2.5,90,-172.6,-1.44837606852573,-3.83621061573592
2.5,90,-172.5,-1.64955485879738,-3.75168951357774
2.5,90,-172.4,-1.8456776782744,-3.65672903439453
2.5,90,-172.3,-2.03621329726245,-3.55163959720316
2.5,90,-172.2,-2.22065022872751,-3.43675762889422
2.5,90,-172.1,-2.3984978865097,-3.31244424964019
2.5,90,-172,-2.56928765035496,-3.17908392050724
2.5,90,-171.9,-2.73257383836911,-3.03708306033781
2.5,90,-171.8,-2.88793458807881,-2.88686863864313
2.5,90,-171.7,-3.0349726478087,-2.72888675086957
2.5,90,-171.6,-3.17331608055786,-2.56360118198106
2.5,90,-171.5,-3.30261888296915,-2.39149196384444
2.5,90,-171.4,-3.42256152233556,-2.21305393141974
2.5,90,-171.3,-3.53285139487417,-2.02879528224886
2.5,90,-171.2,-3.63322320871839,-1.83923614321628
2.5,90,-171.1,-3.72343929523382,-1.64490714802875
2.5,90,-171,-3.80328985235377,-1.44634802833378
2.5,90,-170.9,-3.87259312365549,-1.24410622088191
2.5,90,-170.8,-3.93119551686419,-1.03873549263546
2.5,90,-170.7,-3.97897166537793,-0.830794585249082
2.5,90,-170.6,-4.01582443625874,-0.6208458798992
2.5,90,-170.5,-4.04168488793783,-0.409454083024419
2.5,90,-170.4,-4.05651218063963,-0.197184933167529
2.5,90,-170.3,-4.06029344224814,0.0153960712203579
2.5,90,-170.2,-4.05304359202384,0.227724923431675
2.5,90,-170.1,-4.03480512423816,0.439240340256056
2.5,90,-170,-4.00564785343121,0.649384974655885
2.5,90,-169.9,-3.96566862262461,0.857606610299569
2.5,90,-169.8,-3.91499097544154,1.06335933895134
2.5,90,-169.7,-3.85376479270781,1.26610472171985
2.5,90,-169.6,-3.78216589373785,1.46531293511726
2.5,90,-169.5,-3.70039560215486,1.6604639027772
2.5,90,-169.4,-3.60868027576142,1.85104841352234
2.5,90,-169.3,-3.50727079967151,2.03656922627221
2.5,90,-169.2,-3.3964420416438,2.21654216203198
2.5,90,-169.1,-3.27649226832318,2.39049718291869
2.5,90,-169,-3.14774252090821,2.55797945786095
2.5,90,-168.9,-3.01053594862075,2.71855041425906
2.5,90,-168.8,-2.86523709826238,2.87178877452268
2.5,90,-168.7,-2.71223115810484,3.01729157601669
2.5,90,-168.6,-2.55192315437834,3.15467517255004
2.5,90,-168.5,-2.38473709869438,3.28357621514557
2.5,90,-168.4,-2.21111508486943,3.40365260943496
2.5,90,-168.3,-2.03151633379927,3.51458444664212
2.5,90,-168.2,-1.84641618527238,3.61607490475521
2.5,90,-168.1,-1.65630503590148,3.70785111614873
2.5,90,-168,-1.46168722268833,3.78966499761111
2.5,90,-167.9,-1.26307985212491,3.86129403846113
2.5,90,-167.8,-1.06101157515327,3.92254204221083
2.5,90,-167.7,-0.856021308769758,3.9732398170504
2.5,90,-167.6,-0.648656905547656,4.01324581030206
2.5,90,-167.5,-0.439473772865966,4.04244668191629
2.5,90,-167.4,-0.229033444165309,4.06075781206708
2.5,90,-167.3,-0.0179021050925053,4.06812373794837
2.5,90,-167.2,0.193350922055159,4.06451851497896
2.5,90,-167.1,0.404154731633785,4.04994599779236
2.5,90,-167,0.613938421216938,4.02444003661805
2.5,90,-166.9,0.822132706414872,3.98806458495263
2.5,90,-166.8,1.02817155845285,3.9409137147703
2.5,90,-166.7,1.23149385854899,3.88311153593019
2.5,90,-166.6,1.4315450627073,3.81481201689959
2.5,90,-166.5,1.62777887016072,3.73619870442301
2.5,90,-166.4,1.81965888836408,3.64748434032384
2.5,90,-166.3,2.00666028715952,3.54891037422048
2.5,90,-166.2,2.18827143451406,3.44074637156926
2.5,90,-166.1,2.36399550607017,3.32328931710417
2.5,90,-166,2.53335206065645,3.19686281442163
2.5,90,-165.9,2.69587857387692,3.06181618315252
2.5,90,-165.8,2.85113192194066,2.91852345586315
2.5,90,-165.7,2.99868980800427,2.76738227752679
2.5,90,-165.6,3.13815212348062,2.60881271110032
2.5,90,-165.5,3.26914223701796,2.44325595341685
2.5,90,-165.4,3.39130820416951,2.27117296626187
2.5,90,-165.3,3.50432389115664,2.09304302812585
2.5,90,-165.2,3.60789000657199,1.90936221271678
2.5,90,-165.1,3.70173503537043,1.72064180086513
2.5,90,-165,3.78561607005101,1.52740663295331
2.5,90,-164.9,3.85931953453644,1.33019340944942
2.5,90,-164.8,3.92266179690215,1.12954894751383
2.5,90,-164.7,3.97548966779039,0.926028401973286
2.5,90,-164.6,4.01768078205674,0.720193459218684
2.5,90,-164.5,4.0491438619326,0.512610512773653
2.5,90,-164.4,4.06981886073873,0.303848829404051
2.5,90,-164.3,4.07967698694564,0.0944787146865336
2.5,90,-164.2,4.07872060913853,-0.114930313067586
2.5,90,-164.1,4.06698304320021,-0.323811331732143
2.5,90,-164,4.04452822376826,-0.531601798495132
2.5,90,-163.9,4.01145026274452,-0.737745298796617
2.5,90,-163.8,3.9678728983301,-0.941693252978095
2.5,90,-163.7,3.91394883871978,-1.14290657291092
2.5,90,-163.6,3.84985900521094,-1.34085726129503
2.5,90,-163.5,3.77581168005651,-1.53502994680184
2.5,90,-163.4,3.69204156491678,-1.72492334875939
2.5,90,-163.3,3.59880875623259,-1.91005166565727
2.5,90,-163.2,3.49639764425217,-2.08994588235627
2.5,90,-163.1,3.38511574279058,-2.26415499153299
2.5,90,-163,3.26529245708103,-2.43224712555848
2.5,90,-162.9,3.13727779729261,-2.59381059569553
2.5,90,-162.8,3.00144104543302,-2.74845483619864
2.5,90,-162.7,2.85816938343368,-2.89581125160163
2.5,90,-162.6,2.70786649022122,-3.03553396617833
2.5,90,-162.5,2.55095111552207,-3.16730047525053
2.5,90,-162.4,2.387855638023,-3.29081219869016
2.5,90,-162.3,2.21902461532264,-3.40579493761375
2.5,90,-162.2,2.04491333286305,-3.51199923588758
2.5,90,-162.1,1.86598635872818,-3.60920064864812
2.5,90,-162,1.68271611084078,-3.69719992058941
2.5,90,-161.9,1.49558144269,-3.77582307726957
2.5,90,-161.8,1.30506625327811,-3.84492143314201
2.5,90,-161.7,1.111658126497,-3.90437152041681
2.5,90,-161.6,0.915847004637493,-3.95407494320254
2.5,90,-161.5,0.718123900201152,-3.99395816166589
2.5,90,-161.4,0.518979649637065,-4.0239722111744
2.5,90,-161.3,0.318903712064314,-4.0440923615554
2.5,90,-161.2,0.118383015477271,-4.05431772171178
2.5,90,-161.1,-0.0820991476314706,-4.05467079488301
2.5,90,-161,-0.282064173851026,-4.04519698982889
2.5,90,-160.9,-0.481039150793492,-4.02596409314577
2.5,90,-160.8,-0.678557807076537,-3.99706170780349
2.5,90,-160.7,-0.874161410520403,-3.95860066281728
2.5,90,-160.6,-1.06739961519594,-3.91071239874877
2.5,90,-160.5,-1.25783125838913,-3.85354833346498
2.5,90,-160.4,-1.44502510893564,-3.78727921228081
2.5,90,-160.3,-1.62856056872502,-3.71209444627275
2.5,90,-160.2,-1.80802832947457,-3.62820144218416
2.5,90,-160.1,-1.98303098712363,-3.53582492695257
2.5,90,-160,-2.15318361640158,-3.4352062694806
2.5,90,-159.9,-2.31811430827148,-3.32660280185222
2.5,90,-159.8,-2.47746467305122,-3.21028714176878
2.5,90,-159.7,-2.63089031205942,-3.08654651755275
2.5,90,-159.6,-2.77806126062983,-2.95568209664463
2.5,90,-159.5,-2.91866240528433,-2.81800831810752
2.5,90,-159.4,-3.05239387775214,-2.6738522292595
2.5,90,-159.3,-3.17897142837805,-2.52355282617934
2.5,90,-159.2,-3.29812678127276,-2.36746039748408
2.5,90,-159.1,-3.40960797333178,-2.20593587045953
2.5,90,-159,-3.51317967898874,-2.03935015834037
2.5,90,-158.9,-3.6086235222749,-1.86808350729368
2.5,90,-158.8,-3.69573837744209,-1.69252484145132
2.5,90,-158.7,-3.77434065906607,-1.51307110417729
2.5,90,-158.6,-3.84426460219458,-1.33012659363785
2.5,90,-158.5,-3.90536253274058,-1.14410229067049
2.5,90,-158.4,-3.95750512795173,-0.955415176924814
2.5,90,-158.3,-4.00058166641921,-0.764487541269093
2.5,90,-158.2,-4.03450026672617,-0.571746272525435
2.5,90,-158.1,-4.05918811348403,-0.377622136710626
2.5,90,-158,-4.07459166916946,-0.182549037114854
2.5,90,-157.9,-4.08067686985931,0.0130367442479816
2.5,90,-157.8,-4.0774293026712,0.208697325050422
2.5,90,-157.7,-4.06485436245716,0.403994021880064
2.5,90,-157.6,-4.04297738507032,0.598488170940005
2.5,90,-157.5,-4.01184375433445,0.791741970542854
2.5,90,-157.4,-3.97151897969509,0.983319345362368
2.5,90,-157.3,-3.92208874142211,1.17278683203247
2.5,90,-157.2,-3.86365890016856,1.35971448529258
2.5,90,-157.1,-3.79635546767121,1.54367680347903
2.5,90,-157,-3.72032453540409,1.72425367175897
2.5,90,-156.9,-3.63573215807033,1.90103132109844
2.5,90,-156.8,-3.54276418893572,2.07360330056067
2.5,90,-156.7,-3.44162606417285,2.24157146014242
2.5,90,-156.6,-3.33254253359329,2.40454694098567
2.5,90,-156.5,-3.21575733539573,2.56215116945189
2.5,90,-156.4,-3.09153281285003,2.71401685121878
2.5,90,-156.3,-2.96014947116442,2.85978896126432
2.5,90,-156.2,-2.82190547314559,2.99912572533791
2.5,90,-156.1,-2.6771160726539,3.13169958829209
2.5,90,-156,-2.52611298527474,3.25719816445989
2.5,90,-155.9,-2.36924369606813,3.37532516511822
2.5,90,-155.8,-2.2068707047178,3.48580129797588
2.5,90,-155.7,-2.03937070887219,3.58836513357139
2.5,90,-155.6,-1.8671337269502,3.68277393345745
2.5,90,-155.5,-1.6905621621671,3.76880443509095
2.5,90,-155.4,-1.51006981001823,3.84625358843586
2.5,90,-155.3,-1.32608081193172,3.9149392394247
2.5,90,-155.2,-1.13902855826517,3.9747007556085
2.5,90,-155.1,-0.949354544267722,4.02539958955603
2.5,90,-155,-0.757507183053727,4.0669197758381
2.5,90,-154.9,-0.563940580035719,4.09916835774902
2.5,90,-154.8,-0.369113273633792,4.12207574027377
2.5,90,-154.7,-0.173486947416205,4.13559596620085
2.5,90,-154.6,0.0224748808734643,4.13970691270617
2.5,90,-154.5,0.21830818768768,4.13441040618596
2.5,90,-154.4,0.413549783510873,4.11973225359595
2.5,90,-154.3,0.607738658054457,4.09572218905211
2.5,90,-154.2,0.800417324578802,4.06245373496344
2.5,90,-154.1,0.991133157032192,4.02002397749318
2.5,90,-154,1.17943971366831,3.96855325667765
2.5,90,-153.9,1.36489804082352,3.9081847720662
2.5,90,-153.8,1.54707795060552,3.83908410527719
2.5,90,-153.7,1.7255592663637,3.76143866138848
2.5,90,-153.6,1.89993302997658,3.67545703159239
2.5,90,-153.5,2.0698026652061,3.58136828003832
2.5,90,-153.4,2.23478509162254,3.47942115826052
2.5,90,-153.3,2.39451178390481,3.36988325103485
2.5,90,-153.2,2.54862977165759,3.25304005792679
2.5,90,-153.1,2.69680257526057,3.12919401517925
2.5,90,-153,2.83871107367267,2.99866346293682
2.5,90,-152.9,2.97405430054881,2.86178156311542
2.5,90,-152.8,3.10255016548856,2.71889517349437
2.5,90,-152.7,3.22393609771786,2.57036368383489
2.5,90,-152.6,3.33796961000337,2.41655782000997
2.5,90,-152.5,3.44442878111069,2.25785842226542
2.5,90,-152.4,3.54311265563625,2.0946552038206
2.5,90,-152.3,3.63384156056515,1.92734549605809
2.5,90,-152.2,3.71645733842889,1.75633298654547
2.5,90,-152.1,3.79082349745232,1.58202645608015
2.5,90,-152,3.85682527958551,1.4048385208497
2.5,90,-151.9,3.91436964780793,1.22518438565875
2.5,90,-151.8,3.96338519456653,1.04348061398853
2.5,90,-151.7,4.00382197366183,0.860143920430248
2.5,90,-151.6,4.03565125832251,0.675589990771971
2.5,90,-151.5,4.05886522860808,0.490232334720443
2.5,90,-151.4,4.07347659164577,0.304481175910571
2.5,90,-151.3,4.07951813854074,0.11874238349802
2.5,90,-151.2,4.07704224209537,-0.0665835507534441
2.5,90,-151.1,4.06612029973169,-0.251102486380769
2.5,90,-151,4.04684212622932,-0.434427556040706
2.5,90,-150.9,4.0193153010694,-0.616180032586234
2.5,90,-150.8,3.98366447531067,-0.795990139193685
2.5,90,-150.7,3.94003064301824,-0.973497800783013
2.5,90,-150.6,3.88857038231795,-1.14835333542524
2.5,90,-150.5,3.82945507115951,-1.32021808488113
2.5,90,-150.4,3.76287008284246,-1.48876498385666
2.5,90,-150.3,3.68901396628909,-1.65367906799494
2.5,90,-150.2,3.6080976159413,-1.81465792104339
2.5,90,-150.1,3.520343436015,-1.97141206203692
2.5,90,-150,3.42598450366759,-2.12366527372176
2.5,90,-149.9,3.3252637354257,-2.27115487380215
2.5,90,-149.8,3.21843306098115,-2.41363193092818
2.5,90,-149.7,3.10575260819931,-2.550861427648
2.5,90,-149.6,2.98748990289636,-2.68262237282396
2.5,90,-149.5,2.8639190866339,-2.80870786625783
2.5,90,-149.4,2.73532015545609,-2.92892511847998
2.5,90,-149.3,2.60197822215629,-3.04309542883694
2.5,90,-149.2,2.46418280431291,-3.15105412515302
2.5,90,-149.1,2.32222713998127,-3.25265046834974
2.5,90,-149,2.17640753257029,-3.3477475254796
2.5,90,-148.9,2.02702272607835,-3.4362220146671
2.5,90,-148.8,1.87437331150873,-3.51796412545436
2.5,90,-148.7,1.71876116494089,-3.59287731801742
2.5,90,-148.6,1.56048891739777,-3.66087810465766
2.5,90,-148.5,1.39985945632679,-3.72189581687959
2.5,90,-148.4,1.23717545820645,-3.77587236124397
2.5,90,-148.3,1.07273895150091,-3.82276196703693
2.5,90,-148.2,0.906850908917483,-3.8625309286216
2.5,90,-148.1,0.73981086767629,-3.89515734514322
2.5,90,-148,0.571916576279837,-3.92063086004261
2.5,90,-147.9,0.403463666075428,-3.93895240259984
2.5,90,-147.8,0.234745345734651,-3.95013393348276
2.5,90,-147.7,0.0660521166333292,-3.954198196016
2.5,90,-147.6,-0.102328492995515,-3.95117847461833
2.5,90,-147.5,-0.270112177347081,-3.94111836158324
2.5,90,-147.4,-0.437018088032292,-3.92407153310097
2.5,90,-147.3,-0.602769057057199,-3.9001015351447
2.5,90,-147.2,-0.767091810079645,-3.86928157956958
2.5,90,-147.1,-0.929717172197456,-3.83169435050629
2.5,90,-147,-1.09038026846474,-3.78743182087064
2.5,90,-146.9,-1.24882072124891,-3.7365950785622
2.5,90,-146.8,-1.40478284643354,-3.67929416168885
2.5,90,-146.7,-1.55801585034278,-3.61564790193345
2.5,90,-146.6,-1.70827402911178,-3.54578377497478
2.5,90,-146.5,-1.85531697205938,-3.46983775669029
2.5,90,-146.4,-1.99890977043234,-3.38795418370376
2.5,90,-146.3,-2.13882323269217,-3.3002856166976
2.5,90,-146.2,-2.27483410730284,-3.20699270479007
2.5,90,-146.1,-2.40672531375647,-3.1082440491809
2.5,90,-146,-2.53428618234637,-3.00421606419661
2.5,90,-145.9,-2.65731270296348,-2.89509283381922
2.5,90,-145.8,-2.77560778295713,-2.7810659617592
2.5,90,-145.7,-2.88898151386707,-2.66233441313474
2.5,90,-145.6,-2.99725144660069,-2.53910434584597
2.5,90,-145.5,-3.1002428744039,-2.4115889297812
2.5,90,-145.4,-3.19778912275294,-2.28000815206583
2.5,90,-145.3,-3.28973184508559,-2.1445886066578
2.5,90,-145.2,-3.3759213230907,-2.00556326670903
2.5,90,-145.1,-3.45621677009003,-1.86317123824618
2.5,90,-145,-3.53048663587579,-1.71765749387616
2.5,90,-144.9,-3.59860891121352,-1.56927258539051
2.5,90,-144.8,-3.66047143008431,-1.41827233432497
2.5,90,-144.7,-3.71597216762351,-1.26491749972555
2.5,90,-144.6,-3.76501953161645,-1.10947342257928
2.5,90,-144.5,-3.80753264533675,-0.952209646579648
2.5,90,-144.4,-3.84344161945744,-0.793399515120672
2.5,90,-144.3,-3.87268781073442,-0.633319744634716
2.5,90,-144.2,-3.89522406515036,-0.472249974619625
2.5,90,-144.1,-3.91101494322008,-0.310472294925374
2.5,90,-144,-3.92003692519162,-0.148270751096647
2.5,90,-143.9,-3.92227859393274,0.0140691712112992
2.5,90,-143.8,-3.91774079336867,0.176261081511119
2.5,90,-143.7,-3.90643676043284,0.338018238017373
2.5,90,-143.6,-3.88839222860806,0.499054117798803
2.5,90,-143.5,-3.86364550126842,0.659083001727081
2.5,90,-143.4,-3.83224749318286,0.817820572225866
2.5,90,-143.3,-3.79426173870658,0.974984521666481
2.5,90,-143.2,-3.74976436536629,1.13029516911343
2.5,90,-143.1,-3.69884403173728,1.28347608299666
2.5,90,-143,-3.64160182871295,1.43425470718008
2.5,90,-142.9,-3.5781511434792,1.58236298780524
2.5,90,-142.8,-3.50861748572554,1.7275379982197
2.5,90,-142.7,-3.43313827584824,1.86952255924915
2.5,90,-142.6,-3.35186259513038,2.00806585204086
2.5,90,-142.5,-3.2649508981114,2.14292402069797
2.5,90,-142.4,-3.17257468759075,2.27386076193138
2.5,90,-142.3,-3.07491615293617,2.4006478989884
2.5,90,-142.2,-2.97216777259214,2.52306593716567
2.5,90,-142.1,-2.86453188190273,2.6409045982831
2.5,90,-142,-2.75222020757473,2.7539633315824
2.5,90,-141.9,-2.63545337031022,2.86205179861918
2.5,90,-141.8,-2.51446035733084,2.96499032983895
2.5,90,-141.7,-2.38947796669779,3.06261035066485
2.5,90,-141.6,-2.26075022550074,3.15475477507693
2.5,90,-141.5,-2.12852778414371,3.24127836482829
2.5,90,-141.4,-1.99306728909713,3.32204805262008
2.5,90,-141.3,-1.85463073660915,3.39694322774611
2.5,90,-141.2,-1.71348480997803,3.4658559829143
2.5,90,-141.1,-1.56990020307851,3.52869132115677
2.5,90,-141,-1.42415093290801,3.58536732195195
2.5,90,-140.9,-1.27651364397558,3.63581526589597
2.5,90,-140.8,-1.1272669073924,3.67997971748028
2.5,90,-140.7,-0.976690517543236,3.71781856575098
2.5,90,-140.6,-0.825064789219603,3.74930302284523
2.5,90,-140.5,-0.672669858077943,3.77441758061791
2.5,90,-140.4,-0.519784987253859,3.79315992578582
2.5,90,-140.3,-0.366687882910881,3.80554081422723
