"Freq [GHz]","Phi [deg]","Theta [deg]","re(rEX) [V]","im(rEX) [V]"
2.5,90,-180,-1.95940639509361,3.83900093802059
2.5,90,-179.9,-1.64189735448378,3.98556592025109
2.5,90,-179.8,-1.31364274009581,4.10596447775045
2.5,90,-179.7,-0.976788392397336,4.19942990482295
2.5,90,-179.6,-0.633532713408582,4.26537032587914
2.5,90,-179.5,-0.286112548336254,4.30337207408434
2.5,90,-179.4,0.063211125041613,4.31320194428172
2.5,90,-179.3,0.412167611160401,4.29480831219342
2.5,90,-179.2,0.758490927605092,4.24832111859327
2.5,90,-179.1,1.09993416472541,4.17405072376273
2.5,90,-179,1.43428368747677,4.07248564405625
2.5,90,-178.9,1.75937309450539,3.94428918878317
2.5,90,-178.8,2.07309685141605,3.7902950218313
2.5,90,-178.7,2.37342351750174,3.61150167848629
2.5,90,-178.6,2.65840848796494,3.40906607371484
2.5,90,-178.5,2.92620617680084,3.1842960437546
2.5,90,-178.4,3.17508156901921,2.93864196816925
2.5,90,-178.3,3.40342107474272,2.67368752455751
2.5,90,-178.2,3.60974262190173,2.39113963283854
2.5,90,-178.1,3.79270492873996,2.09281765044697
2.5,90,-178,3.95111590212057,1.78064188384643
2.5,90,-177.9,4.08394011265827,1.45662148549758
2.5,90,-177.8,4.19030530298,1.12284180877361
2.5,90,-177.7,4.26950789090477,0.781451296298485
2.5,90,-177.6,4.32101743501409,0.434647979773015
2.5,90,-177.5,4.34448003592977,0.0846656715424026
2.5,90,-177.4,4.33972065260227,-0.266240070063505
2.5,90,-177.3,4.3067443190145,-0.615806118225494
2.5,90,-177.2,4.24573625289724,-0.961776013647749
2.5,90,-177.1,4.15706085430562,-1.30191417426717
2.5,90,-177,4.04125959819493,-1.63401999378592
2.5,90,-176.9,3.89904783143253,-1.95594174452962
2.5,90,-176.8,3.73131049095739,-2.26559020097067
2.5,90,-176.7,3.53909676602779,-2.56095190152611
2.5,90,-176.6,3.32361373364726,-2.84010196795978
2.5,90,-176.5,3.08621900229661,-3.10121640388806
2.5,90,-176.4,2.82841240500683,-3.34258379648454
2.5,90,-176.3,2.55182678853563,-3.56261634852426
2.5,90,-176.2,2.25821795094718,-3.75986017136719
2.5,90,-176.1,1.94945378519218,-3.9330047733651
2.5,90,-176,1.62750269132616,-4.08089168245874
2.5,90,-175.9,1.2944213247499,-4.20252214640726
2.5,90,-175.8,0.952341752274097,-4.29706385914185
2.5,90,-175.7,0.603458091878842,-4.36385666713561
2.5,90,-175.6,0.250012715720822,-4.40241721541626
2.5,90,-175.5,-0.105717900790613,-4.4124424988895
2.5,90,-175.4,-0.46143759819418,-4.39381229096131
2.5,90,-175.3,-0.814845132438498,-4.34659042801987
2.5,90,-175.2,-1.16364886471249,-4.27102493512649
2.5,90,-175.1,-1.50558145038941,-4.16754698523805
2.5,90,-175,-1.83841443499936,-4.03676869140088
2.5,90,-174.9,-2.15997266486031,-3.87947973858111
2.5,90,-174.8,-2.46814842028043,-3.69664286908437
2.5,90,-174.7,-2.76091518009833,-3.48938824282728
2.5,90,-174.6,-3.03634092776428,-3.25900670100791
2.5,90,-174.5,-3.29260091119064,-3.00694196893399
2.5,90,-174.4,-3.52798977120637,-2.73478184086343
2.5,90,-174.3,-3.74093295664639,-2.44424839663448
2.5,90,-174.2,-3.92999734787235,-2.13718730657216
2.5,90,-174.1,-4.0939010148524,-1.81555628759837
2.5,90,-174,-4.23152204080533,-1.48141277959712
2.5,90,-173.9,-4.34190634781461,-1.13690091685081
2.5,90,-173.8,-4.42427446672173,-0.784237874709483
2.5,90,-173.7,-4.47802719997793,-0.425699676553338
2.5,90,-173.6,-4.50275013294066,-0.0636065505002607
2.5,90,-173.5,-4.49821695630498,0.299692070836869
2.5,90,-173.4,-4.46439156991634,0.661832810961139
2.5,90,-173.3,-4.40142894607743,1.02045377123095
2.5,90,-173.2,-4.30967473858317,1.3732100124691
2.5,90,-173.1,-4.18966363204506,1.71778899383776
2.5,90,-173,-4.04211643453982,2.05192586572353
2.5,90,-172.9,-3.86793592518014,2.3734185134351
2.5,90,-172.8,-3.66820147679748,2.68014224929465
2.5,90,-172.7,-3.44416248248123,2.97006405221985
2.5,90,-172.6,-3.19723062317897,3.24125625612952
2.5,90,-172.5,-2.92897102185408,3.49190959148004
2.5,90,-172.4,-2.64109233777057,3.72034548791717
2.5,90,-172.3,-2.33543586224592,3.92502755041851
2.5,90,-172.2,-2.01396368464032,4.1045721263586
2.5,90,-172.1,-1.67874600435701,4.25775788664073
2.5,90,-172,-1.33194767116156,4.38353435036583
2.5,90,-171.9,-0.975814042133703,4.4810292894088
2.5,90,-171.8,-0.612656248982741,4.54955495670661
2.5,90,-171.7,-0.244835974248926,4.58861308997432
2.5,90,-171.6,0.12525016097967,4.59789865090587
2.5,90,-171.5,0.495186491808393,4.57730226862179
2.5,90,-171.4,0.862554378064915,4.52691136513706
2.5,90,-171.3,1.22494833608582,4.4470099498713
2.5,90,-171.2,1.57999212216808,4.33807707963966
2.5,90,-171.1,1.92535465585202,4.20078399007781
2.5,90,-171,2.25876567179286,4.03598991399151
2.5,90,-170.9,2.57803099039521,3.84473661161014
2.5,90,-170.8,2.88104729963748,3.62824164708459
2.5,90,-170.7,3.16581634357858,3.38789045473389
2.5,90,-170.6,3.43045841690677,3.12522724743448
2.5,90,-170.5,3.67322506953533,2.84194482808903
2.5,90,-170.4,3.89251093063555,2.53987337324355
2.5,90,-170.3,4.08686456759446,2.22096826556656
2.5,90,-170.2,4.25499830214238,1.88729705900706
2.5,90,-170.1,4.39579691326635,1.54102566694584
2.5,90,-170,4.50832516445705,1.18440386948992
2.5,90,-169.9,4.59183410126225,0.819750241192512
2.5,90,-169.8,4.64576607398256,0.44943660485304
2.5,90,-169.7,4.66975844956924,0.0758721206393592
2.5,90,-169.6,4.66364598630073,-0.298512877462382
2.5,90,-169.5,4.62746185454879,-0.671283183949201
2.5,90,-169.4,4.56143729681855,-1.04001504787603
2.5,90,-169.3,4.46599993018183,-1.40231240755109
2.5,90,-169.2,4.34177070413998,-1.7558229193918
2.5,90,-169.1,4.18955953677238,-2.098253668054
2.5,90,-169,4.01035966166933,-2.4273864473772
2.5,90,-168.9,3.80534072753985,-2.7410925049579
2.5,90,-168.8,3.57584070144491,-3.0373466472523
2.5,90,-168.7,3.32335663526873,-3.31424060697602
2.5,90,-168.6,3.04953436323116,-3.56999558017905
2.5,90,-168.5,2.75615720589934,-3.80297384668117
2.5,90,-168.4,2.44513376321861,-4.01168939450106
2.5,90,-168.3,2.1184848854912,-4.19481747645099
2.5,90,-168.2,1.77832991694099,-4.35120303512907
2.5,90,-168.1,1.42687231146932,-4.47986794106056
2.5,90,-168,1.06638472438742,-4.58001699764854
2.5,90,-167.9,0.699193687291129,-4.65104267581407
2.5,90,-167.8,0.327663975773808,-4.69252855067118
2.5,90,-167.7,-0.0458172186338203,-4.70425142220455
2.5,90,-167.6,-0.418856200083169,-4.68618211162683
2.5,90,-167.5,-0.789068651408079,-4.63848493480744
2.5,90,-167.4,-1.15409537721492,-4.5615158638067
2.5,90,-167.3,-1.51161779750835,-4.45581939704266
2.5,90,-167.2,-1.8593730848506,-4.32212416788712
2.5,90,-167.1,-2.19516884140897,-4.16133733045988
2.5,90,-167,-2.51689721635844,-3.9745377699958
2.5,90,-166.9,-2.82254836894422,-3.762968193335
2.5,90,-166.8,-3.11022318802888,-3.52802616276507
2.5,90,-166.7,-3.37814518509012,-3.27125414357531
2.5,90,-166.6,-3.62467148435223,-2.99432864221087
2.5,90,-166.5,-3.84830284096405,-2.69904851779332
2.5,90,-166.4,-4.04769262581218,-2.38732255496801
2.5,90,-166.3,-4.221654723621,-2.06115639050633
2.5,90,-166.2,-4.36917029936424,-1.72263888981347
2.5,90,-166.1,-4.48939339663124,-1.3739280724435
2.5,90,-166,-4.58165534038096,-1.01723668789051
2.5,90,-165.9,-4.64546792540425,-0.65481754430478
2.5,90,-165.8,-4.68052538073202,-0.288948693367886
2.5,90,-165.7,-4.68670510909793,0.0780814256347722
2.5,90,-165.6,-4.66406720932204,0.443988780473247
2.5,90,-165.5,-4.61285279805806,0.806508379014788
2.5,90,-165.4,-4.53348115567543,1.16340864274184
2.5,90,-165.3,-4.42654572906786,1.51250542598492
2.5,90,-165.2,-4.29280903183244,1.85167558990809
2.5,90,-165.1,-4.13319648949429,2.17887004470444
2.5,90,-165,-3.9487892842117,2.49212617845008
2.5,90,-164.9,-3.74081625963971,2.78957959657943
2.5,90,-164.8,-3.51064495231868,3.06947510192704
2.5,90,-164.7,-3.25977182105073,3.33017685168006
2.5,90,-164.6,-2.98981175020747,3.57017763433639
2.5,90,-164.5,-2.70248690674863,3.78810721681261
2.5,90,-164.4,-2.39961503391264,3.98273971912608
2.5,90,-164.3,-2.08309726704884,4.15299998153071
2.5,90,-164.2,-1.75490555889797,4.29796889654948
2.5,90,-164.1,-1.41706980278983,4.41688768595921
2.5,90,-164,-1.07166474272037,4.5091611103855
2.5,90,-163.9,-0.720796759111433,4.5743596066954
2.5,90,-163.8,-0.366590618254117,4.61222035578051
2.5,90,-163.7,-0.0111762720194804,4.62264729054515
2.5,90,-163.6,0.343324207586341,4.60571006090494
2.5,90,-163.5,0.69480947701991,4.56164197931041
2.5,90,-163.4,1.04121147403501,4.49083697669535
2.5,90,-163.3,1.38050759943081,4.39384560476948
2.5,90,-163.2,1.71073245641485,4.27137012619318
2.5,90,-163.1,2.02998908072012,4.12425873935785
2.5,90,-163,2.33645959941061,3.95349898922007
2.5,90,-162.9,2.62841526141385,3.7602104198811
2.5,90,-162.8,2.90422578819244,3.54563652834389
2.5,90,-162.7,3.16236799855014,3.31113608210977
2.5,90,-162.6,3.40143366732359,3.058173865981
2.5,90,-162.5,3.62013658358057,2.78831092561686
2.5,90,-162.4,3.81731877988598,2.50319437704708
2.5,90,-162.3,3.99195591016496,2.20454685247914
2.5,90,-162.2,4.1431617596342,1.89415565336117
2.5,90,-162.1,4.27019187615177,1.57386168178832
2.5,90,-162,4.37244631810998,1.24554822098277
2.5,90,-161.9,4.44947151962253,0.911129634762767
2.5,90,-161.8,4.50096127920654,0.572540054657641
2.5,90,-161.7,4.52675688339365,0.231722121657184
2.5,90,-161.6,4.52684638169526,-0.109384152470014
2.5,90,-161.5,4.50136303406817,-0.448852341766917
2.5,90,-161.4,4.45058295645419,-0.784780320796145
2.5,90,-161.3,4.37492199408212,-1.11530068070236
2.5,90,-161.2,4.27493185600564,-1.43859079314769
2.5,90,-161.1,4.15129554779405,-1.75288247214519
2.5,90,-161,4.0048221423835,-2.05647118751342
2.5,90,-160.9,3.83644093183108,-2.34772478752316
2.5,90,-160.8,3.64719500508615,-2.62509169228371
2.5,90,-160.7,3.43823429890635,-2.88710852347528
2.5,90,-160.6,3.21080817070057,-3.13240714015355
2.5,90,-160.5,2.96625754338445,-3.35972105449696
2.5,90,-160.4,2.70600667329417,-3.56789120550885
2.5,90,-160.3,2.43155459283242,-3.75587107279799
2.5,90,-160.2,2.14446627982638,-3.92273111661772
2.5,90,-160.1,1.84636360558131,-4.06766253431975
2.5,90,-160,1.53891611332369,-4.18998032725535
2.5,90,-159.9,1.22383167817023,-4.28912567591227
2.5,90,-159.8,0.90284709894352,-4.36466762469573
2.5,90,-159.7,0.577718671107435,-4.41630408122941
2.5,90,-159.6,0.250212788832455,-4.44386213835619
2.5,90,-159.5,-0.0779033772603435,-4.44729773014829
2.5,90,-159.4,-0.404871081757805,-4.42669463618326
2.5,90,-159.3,-0.728949042390926,-4.38226285110143
2.5,90,-159.2,-1.04842227304669,-4.31433633902649
2.5,90,-159.1,-1.36161067269659,-4.22337019480283
2.5,90,-159,-1.66687733322825,-4.10993723617853
2.5,90,-158.9,-1.96263653138267,-3.97472405304714
2.5,90,-158.8,-2.24736137229759,-3.81852654164957
2.5,90,-158.7,-2.51959105448974,-3.64224495324165
2.5,90,-158.6,-2.77793772848684,-3.44687848815186
2.5,90,-158.5,-3.02109292371887,-3.23351946739482
2.5,90,-158.4,-3.24783352068635,-3.00334711507818
2.5,90,-158.3,-3.45702724783577,-2.75762098574611
2.5,90,-158.2,-3.64763768497577,-2.4976740715521
2.5,90,-158.1,-3.81872875745335,-2.22490562475543
2.5,90,-158,-3.96946870767731,-1.94077373149118
2.5,90,-157.9,-4.09913353290917,-1.64678767309178
2.5,90,-157.8,-4.20710988054959,-1.34450011143182
2.5,90,-157.7,-4.29289739441422,-1.03549913484629
2.5,90,-157.6,-4.35611050772244,-0.721400201136811
2.5,90,-157.5,-4.3964796807113,-0.40383801403422
2.5,90,-157.4,-4.41385208293146,-0.0844583692433931
2.5,90,-157.3,-4.40819172238575,0.235089994149994
2.5,90,-157.2,-4.37957902572943,0.553163501564958
2.5,90,-157.1,-4.32820987576627,0.868131775282757
2.5,90,-157,-4.25439411444576,1.17838555706968
2.5,90,-156.9,-4.15855352149406,1.48234448755172
2.5,90,-156.8,-4.04121928069367,1.77846470960983
2.5,90,-156.7,-3.90302894766566,2.06524626392345
2.5,90,-156.6,-3.74472293480108,2.34124024573237
2.5,90,-156.5,-3.56714053073456,2.60505569291192
2.5,90,-156.4,-3.37121547345319,2.8553661765587
2.5,90,-156.3,-3.15797109778178,3.09091606647364
2.5,90,-156.2,-2.92851507958324,3.3105264451976
2.5,90,-156.1,-2.68403380055387,3.51310064560824
2.5,90,-156,-2.42578635897494,3.69762938852516
2.5,90,-155.9,-2.1550982532007,3.86319549829211
2.5,90,-155.8,-1.87335476601203,4.00897817591311
2.5,90,-155.7,-1.58199407923969,4.13425681101248
2.5,90,-155.6,-1.28250014925629,4.23841431566561
2.5,90,-155.5,-0.976395375041812,4.32093996500878
2.5,90,-155.4,-0.665233091543001,4.38143173147829
2.5,90,-155.3,-0.350589921955741,4.41959810155142
2.5,90,-155.2,-0.0340580233635367,4.43525936595903
2.5,90,-155.1,0.282762739150246,4.42834837650886
2.5,90,-155,0.598272654239326,4.39891076489439
2.5,90,-154.9,0.910880025774362,4.34710462116028
2.5,90,-154.8,1.21900899767344,4.27319963184498
2.5,90,-154.7,1.52110730555083,4.17757568021613
2.5,90,-154.6,1.81565391866553,4.06072091344592
2.5,90,-154.5,2.10116653582774,3.92322928403108
2.5,90,-154.4,2.37620889926082,3.76579757523629
2.5,90,-154.3,2.63939789093048,3.58922192281695
2.5,90,-154.2,2.88941037653985,3.3943938477464
2.5,90,-154.1,3.12498976325419,3.18229581712034
2.5,90,-154,3.34495223826507,2.95399635282266
2.5,90,-153.9,3.54819265652795,2.71064470990017
2.5,90,-153.8,3.73369004741363,2.453465148891
2.5,90,-153.7,3.90051271159688,2.18375082857031
2.5,90,-153.6,4.04782288126179,1.90285734770256
2.5,90,-153.5,4.17488091863325,1.61219596640201
2.5,90,-153.4,4.28104902993129,1.31322653959829
2.5,90,-153.3,4.36579447409505,1.00745019685211
2.5,90,-153.2,4.42869224801499,0.696401804367197
2.5,90,-153.1,4.46942723254309,0.381642246477542
2.5,90,-153,4.48779578620593,0.06475056514032
2.5,90,-152.9,4.4837067763126,-0.252684002970506
2.5,90,-152.8,4.45718204001382,-0.569070051317813
2.5,90,-152.7,4.40835627081602,-0.882822049201335
2.5,90,-152.6,4.33747632906587,-1.19236836677629
2.5,90,-152.5,4.24489997798228,-1.49615923766547
2.5,90,-152.4,4.13109404990362,-1.79267461747191
2.5,90,-152.3,3.99663205052093,-2.08043189677407
2.5,90,-152.2,3.84219121196182,-2.35799342769722
2.5,90,-152.1,3.66854900865781,-2.62397382390877
2.5,90,-152,3.4765791529461,-2.87704699488082
2.5,90,-151.9,3.26724709031022,-3.11595287649383
2.5,90,-151.8,3.04160501702779,-3.3395038215225
2.5,90,-151.7,2.80078644575139,-3.54659061523775
2.5,90,-151.6,2.54600034718138,-3.73618808326983
2.5,90,-151.5,2.27852489847533,-3.90736026100191
2.5,90,-151.4,1.99970087136478,-4.05926509608252
2.5,90,-151.3,1.71092469509621,-4.19115865815244
2.5,90,-151.2,1.41364123126276,-4.30239883256025
2.5,90,-151.1,1.10933629933713,-4.39244847767346
2.5,90,-151,0.79952899323263,-4.4608780283657
2.5,90,-150.9,0.485763830507221,-4.50736753135237
2.5,90,-150.8,0.169602776863502,-4.5317081012421
2.5,90,-150.7,-0.147382810613778,-4.53380278944633
2.5,90,-150.6,-0.463620277513073,-4.51366686142508
2.5,90,-150.5,-0.777543759212635,-4.47142748112121
2.5,90,-150.4,-1.0876022168293,-4.40732280482665
2.5,90,-150.3,-1.39226737804539,-4.32170049011051
2.5,90,-150.2,-1.69004153940061,-4.215015628797
2.5,90,-150.1,-1.97946518744236,-4.08782811629085
2.5,90,-150,-2.2591243971974,-3.9407994727847
2.5,90,-149.9,-2.5276579677479,-3.77468913502899
2.5,90,-149.8,-2.78376425626608,-3.59035024037506
2.5,90,-149.7,-3.02620767366569,-3.38872492770063
2.5,90,-149.6,-3.25382480705778,-3.17083918257165
2.5,90,-149.5,-3.46553013644078,-2.93779725656798
2.5,90,-149.4,-3.6603213154899,-2.6907756930885
2.5,90,-149.3,-3.83728398893052,-2.43101699413333
2.5,90,-149.2,-3.99559612175995,-2.15982296452742
2.5,90,-149.1,-4.13453181850574,-1.87854777178801
2.5,90,-149,-4.25346461375996,-1.58859076133144
2.5,90,-148.9,-4.35187021837969,-1.29138906796614
2.5,90,-148.8,-4.42932870898374,-0.988410065603127
2.5,90,-148.7,-4.48552615167134,-0.681143697847849
2.5,90,-148.6,-4.52025565422894,-0.371094732594099
2.5,90,-148.5,-4.53341784444563,-0.0597749839365774
2.5,90,-148.4,-4.52502077550996,0.251304455355263
2.5,90,-148.3,-4.49517926278559,0.560640927900557
2.5,90,-148.2,-4.44411365954091,0.8667478300067
2.5,90,-148.1,-4.37214808241522,1.16816209276184
2.5,90,-148,-4.27970810052293,1.46345148558423
2.5,90,-147.9,-4.16731790510631,1.75122170323641
2.5,90,-147.8,-4.03559697952848,2.03012319888815
2.5,90,-147.7,-3.88525629213311,2.29885772760361
2.5,90,-147.6,-3.7170940370709,2.55618456662135
2.5,90,-147.5,-3.53199095058693,2.80092638098006
2.5,90,-147.4,-3.33090523246736,3.03197470539603
2.5,90,-147.3,-3.11486710434294,3.24829501580965
2.5,90,-147.2,-2.88497303833127,3.44893136666427
2.5,90,-147.1,-2.64237969106016,3.63301057274689
2.5,90,-147,-2.3882975794427,3.79974591728444
2.5,90,-146.9,-2.1239845356656,3.9484403709333
2.5,90,-146.8,-1.85073897970125,4.07848930930289
2.5,90,-146.7,-1.56989304825754,4.1893827196972
2.5,90,-146.6,-1.28280561943958,4.28070689081841
2.5,90,-146.5,-0.99085527251057,4.35214558223798
2.5,90,-146.4,-0.695433222014619,4.4034806734784
2.5,90,-146.3,-0.397936265156919,4.43459229554882
2.5,90,-146.2,-0.099759780742235,4.44545845071701
2.5,90,-146.1,0.197709182848434,4.43615412916259
2.5,90,-146,0.493098694200717,4.40684993392482
2.5,90,-145.9,0.785058564728168,4.35781022821547
2.5,90,-145.8,1.0722667800884,4.28939082169856
2.5,90,-145.7,1.35343570501023,4.20203621472909
2.5,90,-145.6,1.62731803117405,4.09627642178123
2.5,90,-145.5,1.89271243973262,3.97272339736722
2.5,90,-145.4,2.14846895213753,3.83206708964666
2.5,90,-145.3,2.39349394514471,3.67507114863632
2.5,90,-145.2,2.62675480818207,3.50256831745176
2.5,90,-145.1,2.84728422366606,3.31545553633283
2.5,90,-145,3.05418405332958,3.11468879032344
2.5,90,-144.9,3.24662881615439,2.90127773238909
2.5,90,-144.8,3.4238687460737,2.67628011445834
2.5,90,-144.7,3.58523242020183,2.44079605937054
2.5,90,-144.6,3.73012895094545,2.19596220700113
2.5,90,-144.5,3.85804973793763,1.94294576791624
2.5,90,-144.4,3.96856977829137,1.68293851779486
2.5,90,-144.3,4.06134853618594,1.41715076553742
2.5,90,-144.2,4.13613037525288,1.14680532748043
2.5,90,-144.1,4.19274455961258,0.873131539446884
2.5,90,-144,4.23110483170857,0.597359337502391
2.5,90,-143.9,4.25120857728399,0.320713437262858
2.5,90,-143.8,4.25313558993281,0.0444076404174332
2.5,90,-143.7,4.23704644962453,-0.230360704190851
2.5,90,-143.6,4.20318053143712,-0.502416059040517
2.5,90,-143.5,4.15185366243025,-0.770609851651222
2.5,90,-143.4,4.08345544614193,-1.03382540091497
2.5,90,-143.3,3.99844627559064,-1.29098259518218
2.5,90,-143.2,3.89735405690637,-1.54104230309897
2.5,90,-143.1,3.78077066679529,-1.78301050011201
2.5,90,-143,3.64934816795943,-2.01594209553074
2.5,90,-142.9,3.50379480734533,-2.2389444470466
2.5,90,-142.8,3.34487082268273,-2.4511805516466
2.5,90,-142.7,3.17338408319589,-2.65187190390668
2.5,90,-142.6,2.99018559063158,-2.84030101469577
2.5,90,-142.5,2.79616486684526,-3.01581358535682
2.5,90,-142.4,2.59224525413416,-3.17782033443417
2.5,90,-142.3,2.37937915429623,-3.32579847598807
2.5,90,-142.2,2.15854323204261,-3.45929285045439
2.5,90,-142.1,1.93073360789954,-3.57791671086798
2.5,90,-142,1.69696106511152,-3.68135216905763
2.5,90,-141.9,1.4582462943101,-3.7693503081326
2.5,90,-141.8,1.21561519884887,-3.84173096920499
2.5,90,-141.7,0.970094282734854,-3.89838222182314
2.5,90,-141.6,0.722706142018454,-3.93925952902149
2.5,90,-141.5,0.474465079346987,-3.96438461921535
2.5,90,-141.4,0.226372860154921,-3.97384407838185
2.5,90,-141.3,-0.0205853723402986,-3.96778767706552
2.5,90,-141.2,-0.265445007526729,-3.94642644772614
2.5,90,-141.1,-0.507265688767682,-3.91003052880528
2.5,90,-141,-0.745134832794894,-3.85892679262509
2.5,90,-140.9,-0.978170935637499,-3.7934962748482
2.5,90,-140.8,-1.20552665508919,-3.71417142372083
2.5,90,-140.7,-1.42639166121123,-3.62143318769395
2.5,90,-140.6,-1.63999524786251,-3.5158079602716
2.5,90,-140.5,-1.84560869973212,-3.39786440107313
2.5,90,-140.4,-2.04254741081101,-3.26821015212142
2.5,90,-140.3,-2.23017275167546,-3.12748846828522
2.5,90,-140.2,-2.40789368435387,-2.97637478061503
