"Freq [GHz]","Phi [deg]","Theta [deg]","re(rEX) [V]","im(rEX) [V]"
2.5,90,-180,-1.75523050076598,3.95726842981867
2.5,90,-179.9,-2.09869394202069,3.78822487861632
2.5,90,-179.8,-2.42597520007907,3.58938099763999
2.5,90,-179.7,-2.7344864169391,3.36228054092529
2.5,90,-179.6,-3.02178691585221,3.10869237357083
2.5,90,-179.5,-3.28560282730485,2.83059641237393
2.5,90,-179.4,-3.52384536606559,2.53016785097629
2.5,90,-179.3,-3.73462760897158,2.20975979979823
2.5,90,-179.2,-3.91627963581885,1.87188448424056
2.5,90,-179.1,-4.06736190957282,1.51919315658484
2.5,90,-179,-4.18667678700383,1.15445488762049
2.5,90,-178.9,-4.2732780666405,0.780534413190028
2.5,90,-178.8,-4.32647849748703,0.400369218483754
2.5,90,-178.7,-4.34585518911485,0.0169460489819674
2.5,90,-178.6,-4.33125288136713,-0.366722958618575
2.5,90,-178.5,-4.28278504984919,-0.747624329378242
2.5,90,-178.4,-4.20083284146151,-1.12276728976553
2.5,90,-178.3,-4.08604185230676,-1.48920759734242
2.5,90,-178.2,-3.93931677821187,-1.84407096607877
2.5,90,-178.1,-3.76181398569459,-2.18457589677435
2.5,90,-178,-3.55493206832101,-2.5080557275473
2.5,90,-177.9,-3.32030046990191,-2.81197972636684
2.5,90,-177.8,-3.05976627171857,-3.09397305610707
2.5,90,-177.7,-2.77537925582549,-3.35183545248447
2.5,90,-177.6,-2.46937537032279,-3.58355846642885
2.5,90,-177.5,-2.14415873521148,-3.78734113482024
2.5,90,-177.4,-1.80228233894055,-3.96160395698648
2.5,90,-177.3,-1.44642758593516,-4.10500106877748
2.5,90,-177.2,-1.07938286417447,-4.21643052128628
2.5,90,-177.1,-0.704021309216142,-4.2950425872282
2.5,90,-177,-0.323277946867847,-4.34024603448932
2.5,90,-176.9,0.0598735990254048,-4.35171232325786
2.5,90,-176.8,0.442444644535274,-4.32937770032121
2.5,90,-176.7,0.821455039099151,-4.27344318138947
2.5,90,-176.6,1.19395662470364,-4.18437242955531
2.5,90,-176.5,1.55705637309968,-4.06288755506706
2.5,90,-176.4,1.90793901692486,-3.9099628783413
2.5,90,-176.3,2.2438889956975,-3.72681671442876
2.5,90,-176.2,2.56231154415808,-3.51490125284634
2.5,90,-176.1,2.86075275832571,-3.27589062166563
2.5,90,-176,3.13691848381321,-3.01166723889302
2.5,90,-175.9,3.38869188132594,-2.72430656737377
2.5,90,-175.8,3.61414953575985,-2.41606040160057
2.5,90,-175.7,3.8115759877991,-2.08933882581959
2.5,90,-175.6,3.97947658028811,-1.7466909926216
2.5,90,-175.5,4.11658852579523,-1.39078487971035
2.5,90,-175.4,4.22189011656843,-1.02438618970728
2.5,90,-175.3,4.2946080133855,-0.650336563622944
2.5,90,-175.2,4.33422256548524,-0.271531282980437
2.5,90,-175.1,4.34047112970446,0.109103361513071
2.5,90,-175,4.313349373004,0.488632855391891
2.5,90,-174.9,4.25311055861293,0.864137220582856
2.5,90,-174.8,4.1602628319266,1.23273357232993
2.5,90,-174.7,4.03556453793071,1.59159829775954
2.5,90,-174.6,3.88001761717093,1.93798868513905
2.5,90,-174.5,3.69485914202417,2.26926383838406
2.5,90,-174.4,3.48155106914581,2.58290471812541
2.5,90,-174.3,3.2417682973563,2.87653315859677
2.5,90,-174.2,2.97738513279741,3.14792971865947
2.5,90,-174.1,2.69046027484054,3.39505023536672
2.5,90,-174,2.38322044688484,3.61604095948898
2.5,90,-173.9,2.05804280577452,3.80925216427623
2.5,90,-173.8,1.71743627202079,3.97325013132507
2.5,90,-173.7,1.36402193029431,4.10682743063168
2.5,90,-173.6,1.00051265570454,4.2090114256445
2.5,90,-173.5,0.629692126177704,4.27907094826428
2.5,90,-173.4,0.254393384765061,4.31652110316038
2.5,90,-173.3,-0.122522882062053,4.32112617536939
2.5,90,-173.2,-0.498190183135321,4.29290062979573
2.5,90,-173.1,-0.869758011681364,4.23210820583613
2.5,90,-173,-1.23441341974288,4.13925912478554
2.5,90,-172.9,-1.58940221573386,4.01510544184705
2.5,90,-172.8,-1.93204962697501,3.86063458835666
2.5,90,-172.7,-2.25978027425726,3.6770611631458
2.5,90,-172.6,-2.57013731177278,3.46581704470879
2.5,90,-172.5,-2.86080059309533,3.22853990792483
2.5,90,-172.4,-3.12960373219268,2.96706024043284
2.5,90,-172.3,-3.37454993766798,2.68338696428222
2.5,90,-172.2,-3.59382650844656,2.37969177813168
2.5,90,-172.1,-3.78581788988767,2.05829234396903
2.5,90,-172,-3.94911720070806,1.72163445002987
2.5,90,-171.9,-4.08253615306642,1.37227328825951
2.5,90,-171.8,-4.18511330058477,1.01285399024769
2.5,90,-171.7,-4.25612056187261,0.646091570051535
2.5,90,-171.6,-4.29506798018259,0.274750425676352
2.5,90,-171.5,-4.30170669305778,-0.0983764467912798
2.5,90,-171.4,-4.27603009913905,-0.470488371318787
2.5,90,-171.3,-4.21827322258878,-0.838797887305636
2.5,90,-171.2,-4.12891028875717,-1.20055146834646
2.5,90,-171.1,-4.00865053768156,-1.55304991279264
2.5,90,-171,-3.85843231467415,-1.8936682578704
2.5,90,-170.9,-3.67941548953578,-2.21987507349085
2.5,90,-170.8,-3.47297226774864,-2.5292509972657
2.5,90,-170.7,-3.24067646827223,-2.81950637856411
2.5,90,-170.6,-2.98429135322036,-3.08849790666413
2.5,90,-170.5,-2.70575610466414,-3.33424410610531
2.5,90,-170.4,-2.40717105302587,-3.55493959117122
2.5,90,-170.3,-2.09078176994163,-3.74896798095866
2.5,90,-170.2,-1.75896214602756,-3.91491338664682
2.5,90,-170.1,-1.4141965806422,-4.05157039329204
2.5,90,-170,-1.05906141645274,-4.15795246966368
2.5,90,-169.9,-0.696205756363369,-4.23329875122132
2.5,90,-169.8,-0.328331804113106,-4.27707915323372
2.5,90,-169.7,0.0418251274084467,-4.28899778316923
2.5,90,-169.6,0.411516794364265,-4.26899463376337
2.5,90,-169.5,0.778002240243168,-4.21724555050612
2.5,90,-169.4,1.13856790809116,-4.13416047960671
2.5,90,-169.3,1.49054750194942,-4.0203800147019
2.5,90,-169.2,1.83134145510185,-3.87677027259563
2.5,90,-169.1,2.15843586607536,-3.70441614007091
2.5,90,-169,2.46942076762656,-3.50461294522227
2.5,90,-168.9,2.76200759915355,-3.27885661774538
2.5,90,-168.8,3.03404575906073,-3.02883241311366
2.5,90,-168.7,3.28353812052188,-2.75640228550678
2.5,90,-168.6,3.50865540178964,-2.46359100366406
2.5,90,-168.5,3.70774929063083,-2.15257111245822
2.5,90,-168.4,3.87936423156497,-1.82564685086942
2.5,90,-168.3,4.02224779428929,-1.485237144129
2.5,90,-168.2,4.13535955191591,-1.13385779405811
2.5,90,-168.1,4.21787840835727,-0.774102997006293
2.5,90,-168,4.26920832530261,-0.408626323259395
2.5,90,-167.9,4.28898241065009,-0.0401212953244879
2.5,90,-167.8,4.27706534192768,0.328698294939546
2.5,90,-167.7,4.23355411006211,0.695118188776235
2.5,90,-167.6,4.1587770807662,1.0564434403954
2.5,90,-167.5,4.05329138272666,1.41001803245185
2.5,90,-167.4,3.91787864360804,1.75324418670688
2.5,90,-167.3,3.75353910656183,2.08360123178433
2.5,90,-167.2,3.56148417136663,2.39866389322948
2.5,90,-167.1,3.34312741544389,2.69611987531944
2.5,90,-167,3.10007416072242,2.97378660921599
2.5,90,-166.9,2.8341096625888,3.22962704806987
2.5,90,-166.8,2.54718600688655,3.46176439653918
2.5,90,-166.7,2.24140781005283,3.66849566982051
2.5,90,-166.6,1.91901682594056,3.8483039856646
2.5,90,-166.5,1.5823755706064,3.99986950190114
2.5,90,-166.4,1.23395008330199,4.12207892166381
2.5,90,-166.3,0.876291948029889,4.21403349872852
2.5,90,-166.2,0.512019705280513,4.27505548607771
2.5,90,-166.1,0.14379978790968,4.30469298191364
2.5,90,-166,-0.225672881485165,4.30272313878477
2.5,90,-165.9,-0.593694491897022,4.26915371318299
2.5,90,-165.8,-0.957572002715673,4.20422294483504
2.5,90,-165.7,-1.3146427183289,4.10839776686565
2.5,90,-165.6,-1.66229363740162,3.9823703599694
2.5,90,-165.5,-1.99798043728473,3.82705307560803
2.5,90,-165.4,-2.31924595656603,3.64357176496746
2.5,90,-165.3,-2.62373804232341,3.43325756187887
2.5,90,-165.2,-2.90922663314224,3.19763717904972
2.5,90,-165.1,-3.17361995439227,2.93842178768391
2.5,90,-165,-3.41497970858727,2.65749456081574
2.5,90,-164.9,-3.63153515082736,2.35689697036747
2.5,90,-164.8,-3.82169594730526,2.0388139369932
2.5,90,-164.7,-3.98406372358601,1.70555794012327
2.5,90,-164.6,-4.11744221878416,1.35955220321614
2.5,90,-164.5,-4.22084597180005,1.00331307599506
2.5,90,-164.4,-4.29350747636262,0.639431741350745
2.5,90,-164.3,-4.33488275269051,0.270555379575169
2.5,90,-164.2,-4.34465529504177,-0.100632073376831
2.5,90,-164.1,-4.32273836619731,-0.471429433857522
2.5,90,-164,-4.26927562192693,-0.839137902958272
2.5,90,-163.9,-4.18464006063284,-1.20108068063082
2.5,90,-163.8,-4.06943130556634,-1.55462241876813
2.5,90,-163.7,-3.92447123917777,-1.89718837159814
2.5,90,-163.6,-3.75079802120021,-2.22628310386573
2.5,90,-163.5,-3.54965853389133,-2.53950862043087
2.5,90,-163.4,-3.32249930938438,-2.834581785058
2.5,90,-163.3,-3.0709560052311,-3.10935090131186
2.5,90,-163.2,-2.79684150488528,-3.36181133454286
2.5,90,-163.1,-2.50213272998663,-3.59012006092014
2.5,90,-163,-2.18895626078617,-3.79260903729428
2.5,90,-162.9,-1.85957286983889,-3.96779729428485
2.5,90,-162.8,-1.51636108210057,-4.11440166433764
2.5,90,-162.7,-1.16179988175336,-4.23134606650326
2.5,90,-162.6,-0.798450692381507,-4.31776928028899
2.5,90,-162.5,-0.428938762485924,-4.37303115204301
2.5,90,-162.4,-0.0559340927180276,-4.39671718886747
2.5,90,-162.3,0.317867955410628,-4.38864150693658
2.5,90,-162.2,0.689766227241905,-4.34884811322744
2.5,90,-162.1,1.05707337572139,-4.27761051196655
2.5,90,-162,1.41713535158366,-4.1754296394586
2.5,90,-161.9,1.7673506402203,-4.04303014330561
2.5,90,-161.8,2.10518910440044,-3.88135503424718
2.5,90,-161.7,2.42821029498148,-3.69155875086761
2.5,90,-161.6,2.73408109574933,-3.47499868912828
2.5,90,-161.5,3.02059257352901,-3.23322526000683
2.5,90,-161.4,3.28567591066865,-2.96797054937304
2.5,90,-161.3,3.52741730388428,-2.68113566451877
2.5,90,-161.2,3.74407172119975,-2.37477686141187
2.5,90,-161.1,3.93407541727108,-2.05109055568528
2.5,90,-161,4.09605711668273,-1.71239732853411
2.5,90,-160.9,4.22884778476923,-1.36112504601786
2.5,90,-160.8,4.33148891607916,-0.999791216689207
2.5,90,-160.7,4.40323928167389,-0.630984717953344
2.5,90,-160.6,4.4435800879575,-0.257347026057963
2.5,90,-160.5,4.45221851157969,0.118446911910042
2.5,90,-160.4,4.42908958704733,0.493708023212661
2.5,90,-160.3,4.37435643593172,0.86575252965442
2.5,90,-160.2,4.28840883887249,1.23192130030553
2.5,90,-160.1,4.17186016386184,1.58959899504917
2.5,90,-160,4.02554267644924,1.93623285908699
2.5,90,-159.9,3.85050126944704,2.2693510314189
2.5,90,-159.8,3.6479856613457,2.58658023422501
2.5,90,-159.7,3.41944112388092,2.88566271497609
2.5,90,-159.6,3.16649780994397,3.1644723189513
2.5,90,-159.5,2.89095876321212,3.42102957660018
2.5,90,-159.4,2.59478670042309,3.65351569779006
2.5,90,-159.3,2.28008966605002,3.86028537337984
2.5,90,-159.2,1.9491056671916,4.03987829367833
2.5,90,-159.1,1.60418640371372,4.19102930311644
2.5,90,-159,1.24778021500751,4.31267712080794
2.5,90,-158.9,0.882414370133779,4.40397156750636
2.5,90,-158.8,0.510676832542502,4.46427925071427
2.5,90,-158.7,0.135197633985758,4.4931876712618
2.5,90,-158.6,-0.241370005359116,4.49050772646757
2.5,90,-158.5,-0.616368672178062,4.45627459692756
2.5,90,-158.4,-0.987155732021742,4.39074701595828
2.5,90,-158.3,-1.35112214004691,4.29440493265632
2.5,90,-158.2,-1.70571095427814,4.16794559133577
2.5,90,-158.1,-2.0484354179361,4.01227806168047
2.5,90,-158,-2.37689648113573,3.8285162652088
2.5,90,-157.9,-2.68879963695725,3.61797055451591
2.5,90,-157.8,-2.98197095251572,3.38213791214426
2.5,90,-157.7,-3.25437218213174,3.12269084576778
2.5,90,-157.6,-3.50411485699565,2.84146506558295
2.5,90,-157.5,-3.72947325375621,2.54044603831449
2.5,90,-157.4,-3.92889615318331,2.22175452000757
2.5,90,-157.3,-4.10101730938837,1.88763117673249
2.5,90,-157.2,-4.24466455995429,1.5404204084297
2.5,90,-157.1,-4.3588675176555,1.18255349632766
2.5,90,-157,-4.44286379515315,0.816531198642136
2.5,90,-156.9,-4.49610372504825,0.444905922589073
2.5,90,-156.8,-4.51825354888143,0.0702636030894356
2.5,90,-156.7,-4.50919705999429,-0.304794580089027
2.5,90,-156.6,-4.4690356965283,-0.677670514629809
2.5,90,-156.5,-4.39808709214651,-1.04578736588783
2.5,90,-156.4,-4.29688210323588,-1.40660755508373
2.5,90,-156.3,-4.16616034230021,-1.75765037805091
2.5,90,-156.2,-4.00686425790532,-2.09650914055786
2.5,90,-156.1,-3.82013181181091,-2.42086769056463
2.5,90,-156,-3.60728781374332,-2.7285162329573
2.5,90,-155.9,-3.36983398356101,-3.01736631829092
2.5,90,-155.8,-3.10943781927441,-3.28546490380947
2.5,90,-155.7,-2.82792035744232,-3.531007392443
2.5,90,-155.6,-2.52724291982738,-3.75234956354364
2.5,90,-155.5,-2.20949294679923,-3.94801831775007
2.5,90,-155.4,-1.87686902379182,-4.11672116749001
2.5,90,-155.3,-1.53166521210415,-4.2573544141758
2.5,90,-155.2,-1.17625479946343,-4.36900996303672
2.5,90,-155.1,-0.813073589017184,-4.45098073669116
2.5,90,-155,-0.444602847771822,-4.50276465891198
2.5,90,-154.9,-0.0733520369464519,-4.52406719049895
2.5,90,-154.8,0.298158552747718,-4.51480240966777
2.5,90,-154.7,0.667415138245673,-4.47509263981334
2.5,90,-154.6,1.03192763226973,-4.40526663783246
2.5,90,-154.5,1.3892465631701,-4.30585636631977
2.5,90,-154.4,1.73697961010977,-4.17759238281093
2.5,90,-154.3,2.07280764100591,-4.02139788876601
2.5,90,-154.2,2.39450014517416,-3.83838149010004
2.5,90,-154.1,2.69992995789202,-3.62982872971301
2.5,90,-154,2.98708718005089,-3.39719246058989
2.5,90,-153.9,3.25409220264993,-3.14208213558169
2.5,90,-153.8,3.49920775304829,-2.86625209688907
2.5,90,-153.7,3.72084988756955,-2.57158895451057
2.5,90,-153.6,3.91759786318462,-2.26009814845251
2.5,90,-153.5,4.08820282952339,-1.93388979428643
2.5,90,-153.4,4.23159529130589,-1.59516391567466
2.5,90,-153.3,4.34689130038519,-1.24619517072347
2.5,90,-153.2,4.43339734587406,-0.889317181472654
2.5,90,-153.1,4.49061392022487,-0.526906577472477
2.5,90,-153,4.51823774857393,-0.161366865232545
2.5,90,-152.9,4.51616267807885,0.204887764634168
2.5,90,-152.8,4.48447923330429,0.569448581507815
2.5,90,-152.7,4.42347285288025,0.929928300561553
2.5,90,-152.6,4.33362083160509,1.28397680300896
2.5,90,-152.5,4.2155880008307,1.62929648655224
2.5,90,-152.4,4.07022118829356,1.96365714547997
2.5,90,-152.3,3.89854250648469,2.28491028422386
2.5,90,-152.2,3.70174152613741,2.5910027731541
2.5,90,-152.1,3.48116639840329,2.87998976093776
2.5,90,-152,3.23831399574335,3.15004676385357
2.5,90,-151.9,2.97481914744736,3.39948085899467
2.5,90,-151.8,2.69244305097081,3.62674091525337
2.5,90,-151.7,2.39306094492473,3.8304268033033
2.5,90,-151.6,2.07864913354051,4.0092975334248
2.5,90,-151.5,1.75127145574474,4.16227827789639
2.5,90,-151.4,1.41306529460397,4.28846624274062
2.5,90,-151.3,1.06622722482993,4.38713536180678
2.5,90,-151.2,0.712998397267259,4.45773979443708
2.5,90,-151.1,0.355649759824955,4.49991621623643
2.5,90,-151,-0.00353278583955807,4.5134849006928
2.5,90,-150.9,-0.362263193395601,4.498449597517
2.5,90,-150.8,-0.718269949672395,4.45499622153522
2.5,90,-150.7,-1.0693105263661,4.38349037371908
2.5,90,-150.6,-1.41318551346837,4.28447372342955
2.5,90,-150.5,-1.74775234557912,4.15865928813232
2.5,90,-150.4,-2.07093853612678,4.00692565367196
2.5,90,-150.3,-2.38075433889825,3.8303101846266
2.5,90,-150.2,-2.67530476113106,3.63000128026897
2.5,90,-150.1,-2.95280085770437,3.4073297371987
2.5,90,-150,-3.21157024164087,3.16375928475397
2.5,90,-149.9,-3.45006675214672,2.90087636383669
2.5,90,-149.8,-3.6668792277337,2.62037922376572
2.5,90,-149.7,-3.86073933852952,2.32406641519704
2.5,90,-149.6,-4.03052843864478,2.01382476000136
2.5,90,-149.5,-4.17528340637973,1.69161688125771
2.5,90,-149.4,-4.29420144706555,1.35946837820959
2.5,90,-149.3,-4.38664384040379,1.01945473212485
2.5,90,-149.2,-4.45213862123518,0.6736880295181
2.5,90,-149.1,-4.49038218969593,0.324303589135099
2.5,90,-149,-4.50123985365563,-0.0265534215290376
2.5,90,-148.9,-4.4847453131319,-0.376741295572784
2.5,90,-148.8,-4.44109910300227,-0.724134938999683
2.5,90,-148.7,-4.37066601674015,-1.0666387853121
2.5,90,-148.6,-4.27397154005339,-1.40219939440644
2.5,90,-148.5,-4.15169732916318,-1.7288176609438
2.5,90,-148.4,-4.00467577399707,-2.04456056095481
2.5,90,-148.3,-3.83388369175042,-2.34757236942275
2.5,90,-148.2,-3.6404352010707,-2.63608528593163
2.5,90,-148.1,-3.42557383151362,-2.9084294101389
2.5,90,-148,-3.19066392688863,-3.1630420137954
2.5,90,-147.9,-2.93718140463764,-3.39847606124819
2.5,90,-147.8,-2.66670393645947,-3.61340793579087
2.5,90,-147.7,-2.38090061799308,-3.80664433482743
2.5,90,-147.6,-2.08152119750004,-3.97712830255108
2.5,90,-147.5,-1.77038493513183,-4.12394437467131
2.5,90,-147.4,-1.4493691655376,-4.24632281560664
2.5,90,-147.3,-1.12039763725508,-4.34364293446508
2.5,90,-147.2,-0.785428702547475,-4.41543547201351
2.5,90,-147.1,-0.446443431102387,-4.46138405666127
2.5,90,-147,-0.105433720310182,-4.48132573321058
2.5,90,-146.9,0.235609526295903,-4.47525057372703
2.5,90,-146.8,0.574708082415642,-4.44330038532194
2.5,90,-146.7,0.909907876114335,-4.3857665348852
2.5,90,-146.6,1.23929019499594,-4.30308691583362
2.5,90,-146.5,1.56098255640885,-4.19584208671721
2.5,90,-146.4,1.87316918271248,-4.0647506160335
2.5,90,-146.3,2.17410102498725,-3.91066367180966
2.5,90,-146.2,2.46210528219824,-3.73455889841183
2.5,90,-146.1,2.73559436670977,-3.53753362660486
2.5,90,-146,2.99307427115644,-3.32079746610596
2.5,90,-145.9,3.23315229597817,-3.08566433273592
2.5,90,-145.8,3.45454410139269,-2.83354396476309
2.5,90,-145.7,3.656080052177,-2.5659329851515
2.5,90,-145.6,3.83671082832794,-2.28440556815952
2.5,90,-145.5,3.9955122794421,-1.99060377008836
2.5,90,-145.4,4.13168950546462,-1.68622758494932
2.5,90,-145.3,4.24458015127568,-1.37302478640937
2.5,90,-145.2,4.33365690738478,-1.05278061758828
2.5,90,-145.1,4.39852921375422,-0.727307390128785
2.5,90,-145,4.43894416845179,-0.398434053445959
2.5,90,-144.9,4.45478664740728,-0.0679957942055843
2.5,90,-144.8,4.44607864599799,0.262176275118816
2.5,90,-144.7,4.41297785748672,0.59026528127364
2.5,90,-144.6,4.35577550746335,0.914478553322389
2.5,90,-144.5,4.27489346737461,1.23305733040702
2.5,90,-144.4,4.17088067394999,1.54428616313774
2.5,90,-144.3,4.04440888482458,1.84650196020612
2.5,90,-144.2,3.89626780391037,2.13810263465964
2.5,90,-144.1,3.72735961305896,2.41755530733632
2.5,90,-144,3.53869294928184,2.68340402819386
2.5,90,-143.9,3.33137636923946,2.93427697966542
2.5,90,-143.8,3.10661134486692,3.16889312970963
2.5,90,-143.7,2.86568483587006,3.38606830586946
2.5,90,-143.6,2.60996148639394,3.58472066539077
2.5,90,-143.5,2.34087549443481,3.76387554025531
2.5,90,-143.4,2.05992220353829,3.92266963982702
2.5,90,-143.3,1.76864946699771,4.06035459767641
2.5,90,-143.2,1.46864883514398,4.17629985301045
2.5,90,-143.1,1.16154661640697,4.26999486097245
2.5,90,-143,0.848994862627947,4.34105062987028
2.5,90,-142.9,0.532662328633238,4.38920058711564
2.5,90,-142.8,0.214225455334286,4.41430077929991
2.5,90,-142.7,-0.104640575377365,4.41632941536813
2.5,90,-142.6,-0.422270666915286,4.39538576526877
2.5,90,-142.5,-0.737018469919103,4.35168842973574
2.5,90,-142.4,-1.04726483595832,4.2855729999844
2.5,90,-142.3,-1.35142602107359,4.19748912906372
2.5,90,-142.2,-1.6479615992983,4.08799703938707
2.5,90,-142.1,-1.93538204857053,3.95776349355528
2.5,90,-142,-2.21225597386886,3.80755725797635
2.5,90,-141.9,-2.47721693496802,3.63824409096969
2.5,90,-141.8,-2.72896984889997,3.45078128900901
2.5,90,-141.7,-2.96629693999702,3.24621182650543
2.5,90,-141.6,-3.18806321327604,3.02565812605214
2.5,90,-141.5,-3.39322142987545,2.79031549734454
2.5,90,-141.4,-3.5808165662602,2.54144528405211
2.5,90,-141.3,-3.74998974195267,2.28036775874884
2.5,90,-141.2,-3.89998160360581,2.00845480661148
2.5,90,-141.1,-4.03013515629581,1.72712243896865
2.5,90,-141,-4.1398980359595,1.43782317793224
2.5,90,-140.9,-4.22882421991574,1.14203835327465
2.5,90,-140.8,-4.29657517538197,0.84127035242766
2.5,90,-140.7,-4.34292044880601,0.537034863987345
2.5,90,-140.6,-4.36773770166859,0.230853154415196
2.5,90,-140.5,-4.37101220116027,-0.075755583261548
2.5,90,-140.4,-4.35283577678299,-0.381281771014347
2.5,90,-140.3,-4.31340525646383,-0.684232841153209
2.5,90,-140.2,-4.25302039818112,-0.983140450355628
