"Freq [GHz]","Phi [deg]","Theta [deg]","re(rEX) [V]","im(rEX) [V]"
2.5,90,-180,-1.63437710058668,3.35941405358787
2.5,90,-179.9,-1.3221601568029,3.49635090687738
2.5,90,-179.8,-0.998598861582278,3.60438878559791
2.5,90,-179.7,-0.666355677503472,3.68260027549388
2.5,90,-179.6,-0.328167748052485,3.73030198999609
2.5,90,-179.5,0.0131753380090759,3.74706048469625
2.5,90,-179.4,0.354854242379525,3.73269615939433
2.5,90,-179.3,0.694042852389682,3.68728511252989
2.5,90,-179.2,1.02793135228493,3.61115892886806
2.5,90,-179.1,1.3537492060389,3.50490239757336
2.5,90,-179,1.66878786729872,3.36934917414654
2.5,90,-178.9,1.97042303366604,3.20557541599965
2.5,90,-178.8,2.2561362655555,3.01489143757681
2.5,90,-178.7,2.5235357943158,2.79883144677114
2.5,90,-178.6,2.77037635013073,2.5591414398189
2.5,90,-178.5,2.99457784739928,2.29776534674928
2.5,90,-178.4,3.19424277377592,2.01682953371816
2.5,90,-178.3,3.36767213878541,1.71862578203703
2.5,90,-178.2,3.51337984883454,1.40559287632413
2.5,90,-178.1,3.63010538745878,1.08029694584168
2.5,90,-178,3.71682469267562,0.745410713648759
2.5,90,-177.9,3.77275913727389,0.403691817606272
2.5,90,-177.8,3.79738253265262,0.0579603754287027
2.5,90,-177.7,3.79042609231974,-0.288924027176454
2.5,90,-177.6,3.75188130725877,-0.634085740777418
2.5,90,-177.5,3.68200070194659,-0.974656660362182
2.5,90,-177.4,3.58129645673229,-1.30779984627331
2.5,90,-177.3,3.4505368994356,-1.63073296580573
2.5,90,-177.2,3.29074088625765,-1.94075136383425
2.5,90,-177.1,3.10317010928442,-2.23525057286279
2.5,90,-177,2.88931938486168,-2.5117480764615
2.5,90,-176.9,2.65090499380044,-2.76790414514173
2.5,90,-176.8,2.38985116058571,-3.00154157031265
2.5,90,-176.7,2.10827477438663,-3.21066413000116
2.5,90,-176.6,1.80846846956473,-3.3934736294639
2.5,90,-176.5,1.49288219741798,-3.54838537061154
2.5,90,-176.4,1.16410343397644,-3.6740419162133
2.5,90,-176.3,0.824836180641034,-3.76932502808771
2.5,90,-176.2,0.477878925247198,-3.83336567279738
2.5,90,-176.1,0.126101740619797,-3.86555200365862
2.5,90,-176,-0.227577294209331,-3.86553524402526
2.5,90,-175.9,-0.580216158312058,-3.83323341369087
2.5,90,-175.8,-0.928873241794378,-3.7688328577404
2.5,90,-175.7,-1.27063178692368,-3.67278755513125
2.5,90,-175.6,-1.60262421515334,-3.54581620255219
2.5,90,-175.5,-1.92205613753531,-3.38889708754581
2.5,90,-175.4,-2.22622984747978,-3.20326078333624
2.5,90,-175.3,-2.51256709798188,-2.99038071612144
2.5,90,-175.2,-2.7786309702662,-2.75196167361744
2.5,90,-175.1,-3.02214664728357,-2.48992634122342
2.5,90,-175,-3.24102091358977,-2.20639996915982
2.5,90,-174.9,-3.43336021278395,-1.90369329017055
2.5,90,-174.8,-3.59748710482769,-1.5842838227257
2.5,90,-174.7,-3.73195497811251,-1.25079570897961
2.5,90,-174.6,-3.83556088500681,-0.905978249897287
2.5,90,-174.5,-3.90735638468406,-0.552683311836151
2.5,90,-174.4,-3.946656293193,-0.193841789353446
2.5,90,-174.3,-3.95304525785182,0.167560682009241
2.5,90,-174.2,-3.92638209099025,0.528508561814425
2.5,90,-174.1,-3.86680181668072,0.885981582806836
2.5,90,-174,-3.77471540323647,1.23698006009331
2.5,90,-173.9,-3.6508071737511,1.57855011830342
2.5,90,-173.8,-3.4960299066429,1.90780862319376
2.5,90,-173.7,-3.31159765788198,2.22196760556264
2.5,90,-173.6,-3.09897635614525,2.51835796858286
2.5,90,-173.5,-2.85987224139311,2.79445227471502
2.5,90,-173.4,-2.59621823612486,3.04788641520372
2.5,90,-173.3,-2.31015835667404,3.27647997374309
2.5,90,-173.2,-2.00403028919348,3.47825510615749
2.5,90,-173.1,-1.68034627129126,3.6514537698045
2.5,90,-173,-1.34177243546346,3.79455314977812
2.5,90,-172.9,-0.991106784387972,3.90627914376047
2.5,90,-172.8,-0.631255980665232,3.9856177834232
2.5,90,-172.7,-0.265211144588888,4.03182448748259
2.5,90,-172.6,0.103977137089287,4.04443105971672
2.5,90,-172.5,0.473224380785156,4.02325036431109
2.5,90,-172.4,0.839438137614826,3.96837863064114
2.5,90,-172.3,1.1995440663599,3.8801953598616
2.5,90,-172.2,1.55051192529149,3.75936082627184
2.5,90,-172.1,1.88938126012614,3.60681118718615
2.5,90,-172,2.21328656717986,3.42375123577236
2.5,90,-171.9,2.51948171452193,3.21164485184896
2.5,90,-171.8,2.80536340959076,2.97220322576253
2.5,90,-171.7,3.06849350927046,2.70737095002797
2.5,90,-171.6,3.30661997779227,2.41931009221778
2.5,90,-171.5,3.51769630893283,2.11038238047153
2.5,90,-171.4,3.6998992417491,1.78312964979239
2.5,90,-171.3,3.85164461340973,1.44025271284751
2.5,90,-171.2,3.9716012084285,1.0845888331549
2.5,90,-171.1,4.05870248064677,0.719087991183118
2.5,90,-171,4.11215604250008,0.346788144891936
2.5,90,-170.9,4.1314508352782,-0.029210304497011
2.5,90,-170.8,4.11636191408216,-0.405770623290017
2.5,90,-170.7,4.06695280181737,-0.779746208945048
2.5,90,-170.6,3.98357538765624,-1.14800717925177
2.5,90,-170.5,3.86686736676742,-1.50746685824312
2.5,90,-170.4,3.71774723955234,-1.85510793048325
2.5,90,-170.3,3.5374069099568,-2.18800803787661
2.5,90,-170.2,3.32730194344712,-2.50336459764371
2.5,90,-170.1,3.08913956576341,-2.79851862658237
2.5,90,-170,2.82486450340161,-3.07097736512465
2.5,90,-169.9,2.53664278575257,-3.31843550493108
2.5,90,-169.8,2.22684364676263,-3.5387948357568
2.5,90,-169.7,1.89801968071797,-3.73018214096304
2.5,90,-169.6,1.55288542213722,-3.89096518621756
2.5,90,-169.5,1.19429453364289,-4.01976666249291
2.5,90,-169.4,0.825215797950012,-4.11547596228041
2.5,90,-169.3,0.448708120636013,-4.17725868683643
2.5,90,-169.2,0.0678947590588538,-4.20456380208901
2.5,90,-169.1,-0.314063000425184,-4.19712838138382
2.5,90,-169,-0.693992489978787,-4.15497989435028
2.5,90,-168.9,-1.06873640277159,-4.07843602263075
2.5,90,-168.8,-1.43517939992398,-3.96810200484465
2.5,90,-168.7,-1.7902743526847,-3.82486553475864
2.5,90,-168.6,-2.13106799395277,-3.64988925800791
2.5,90,-168.5,-2.45472575859234,-3.44460093366858
2.5,90,-168.4,-2.75855559927927,-3.21068134732943
2.5,90,-168.3,-3.04003057380048,-2.95005008186579
2.5,90,-168.2,-3.29681001070766,-2.66484927070609
2.5,90,-168.1,-3.5267590729091,-2.35742547583547
2.5,90,-168,-3.72796655305083,-2.03030984893779
2.5,90,-167.9,-3.89876075024924,-1.68619674881027
2.5,90,-167.8,-4.0377232947647,-1.32792100133674
2.5,90,-167.7,-4.14370080537213,-0.958433999789084
2.5,90,-167.6,-4.21581428333847,-0.580778852920185
2.5,90,-167.5,-4.25346616687517,-0.198064796141951
2.5,90,-167.4,-4.25634499051449,0.186558913015267
2.5,90,-167.3,-4.22442761487579,0.569929390047965
2.5,90,-167.2,-4.15797901354769,0.948896582197905
2.5,90,-167.1,-4.05754962512314,1.32034956382221
2.5,90,-167,-3.92397029959264,1.68124244360674
2.5,90,-166.9,-3.7583448891376,2.02861966291381
2.5,90,-166.8,-3.56204055368044,2.35964047059826
2.5,90,-166.7,-3.3366758711634,2.67160236753996
2.5,90,-166.6,-3.08410686126687,2.96196332385494
2.5,90,-166.5,-2.80641104897597,3.22836258316449
2.5,90,-166.4,-2.50586971090872,3.46863988130545
2.5,90,-166.3,-2.18494846248199,3.68085292133907
2.5,90,-166.2,-1.84627635768934,3.86329296251411
2.5,90,-166.1,-1.49262368537674,4.01449839781804
2.5,90,-166,-1.12687865632947,4.13326621274781
2.5,90,-165.9,-0.752023184145065,4.21866123677833
2.5,90,-165.8,-0.371107969688104,4.27002311853279
2.5,90,-165.7,0.0127728961390842,4.28697097567963
2.5,90,-165.6,0.396507593557289,4.26940569091631
2.5,90,-165.5,0.776992280168048,4.21750984586439
2.5,90,-165.4,1.15115662431521,4.13174530510884
2.5,90,-165.3,1.51598895031629,4.01284848278515
2.5,90,-165.2,1.86856078495363,3.86182334387042
2.5,90,-165.1,2.20605060105804,3.67993221149617
2.5,90,-165,2.52576656220485,3.46868447000305
2.5,90,-164.9,2.82516808238665,3.2298232709429
2.5,90,-164.8,3.10188602592778,2.96531036565268
2.5,90,-164.7,3.35374138575078,2.67730920323758
2.5,90,-164.6,3.5787622922622,2.36816644668503
2.5,90,-164.5,3.77519922046343,2.04039207226993
2.5,90,-164.4,3.94153827925788,1.69663822831212
2.5,90,-164.3,4.07651248417037,1.33967703861886
2.5,90,-164.2,4.17911093265047,0.972377543527812
2.5,90,-164.1,4.24858581963599,0.597681977303448
2.5,90,-164,4.28445724993567,0.21858158469596
2.5,90,-163.9,4.28651582307714,-0.161907818264612
2.5,90,-163.8,4.25482298539051,-0.540770333709377
2.5,90,-163.7,4.18970916308509,-0.915014317400872
2.5,90,-163.6,4.09176970876314,-1.28169635910589
2.5,90,-163.5,3.96185871203491,-1.6379447115394
2.5,90,-163.4,3.80108074250231,-1.98098197797724
2.5,90,-163.3,3.61078061020857,-2.3081468766565
2.5,90,-163.2,3.39253124457543,-2.6169149095721
2.5,90,-163.1,3.1481198077335,-2.90491777416014
2.5,90,-163,2.87953217187622,-3.16996136851186
2.5,90,-162.9,2.58893590273075,-3.41004225406065
2.5,90,-162.8,2.27866190233885,-3.62336245400767
2.5,90,-162.7,1.95118487400501,-3.80834248094961
2.5,90,-162.6,1.60910278042177,-3.96363250311078
2.5,90,-162.5,1.25511547257961,-4.08812157510329
2.5,90,-162.4,0.892002672071164,-4.18094487609565
2.5,90,-162.3,0.522601492776875,-4.24148891550971
2.5,90,-162.2,0.149783689676565,-4.2693946837278
2.5,90,-162.1,-0.22356717733348,-4.26455874262779
2.5,90,-162,-0.594578478203665,-4.22713226792238
2.5,90,-161.9,-0.960410962683031,-4.15751807211045
2.5,90,-161.8,-1.31828074661168,-4.05636565321512
2.5,90,-161.7,-1.66548066169682,-3.92456433024573
2.5,90,-161.6,-1.99940080328702,-3.76323454135562
2.5,90,-161.5,-2.31754811932732,-3.57371739485038
2.5,90,-161.4,-2.61756489354133,-3.35756257642786
2.5,90,-161.3,-2.89724598685015,-3.1165147281964
2.5,90,-161.2,-3.15455471298244,-2.85249842603808
2.5,90,-161.1,-3.3876372370404,-2.56760189167988
2.5,90,-161,-3.59483539933934,-2.2640595843419
2.5,90,-160.9,-3.77469788099947,-1.94423382400227
2.5,90,-160.8,-3.92598964241505,-1.61059560410404
2.5,90,-160.7,-4.04769958071477,-1.26570475591386
2.5,90,-160.6,-4.13904636753034,-0.912189629705549
2.5,90,-160.5,-4.19948244367184,-0.55272645948557
2.5,90,-160.4,-4.22869616253593,-0.19001857811401
2.5,90,-160.3,-4.22661208911884,0.17322435157207
2.5,90,-160.2,-4.19338947624564,0.534306926623354
2.5,90,-160.1,-4.12941895393882,0.890568255716206
2.5,90,-160,-4.03531748162187,1.23940171879227
2.5,90,-159.9,-3.91192162597934,1.57827408694285
2.5,90,-159.8,-3.76027923967489,1.90474386230314
2.5,90,-159.7,-3.58163962767393,2.21647870615531
2.5,90,-159.6,-3.37744229854627,2.51127183280119
2.5,90,-159.5,-3.14930440776412,2.78705725695815
2.5,90,-159.4,-2.89900700860428,3.04192379334508
2.5,90,-159.3,-2.62848023375431,3.27412771866597
2.5,90,-159.2,-2.33978753707628,3.4821040182444
2.5,90,-159.1,-2.03510913016615,3.66447615200879
2.5,90,-159,-1.71672475233986,3.82006428726509
2.5,90,-158.9,-1.38699591548531,3.94789195859655
2.5,90,-158.8,-1.04834776681962,4.04719112820858
2.5,90,-158.7,-0.703250713025806,4.11740563295845
2.5,90,-158.6,-0.354201948512019,4.15819301708694
2.5,90,-158.5,-0.00370702868190242,4.16942476218945
2.5,90,-158.4,0.345738373831039,4.15118493813403
2.5,90,-158.3,0.691666395987295,4.10376731036014
2.5,90,-158.2,1.03165446519685,4.02767095018884
2.5,90,-158.1,1.36334221104396,3.9235944053634
2.5,90,-158,1.68444769143386,3.79242849794544
2.5,90,-157.9,1.99278282418879,3.63524782585492
2.5,90,-157.8,2.28626792329633,3.45330105270054
2.5,90,-157.7,2.56294524778695,3.24800007805754
2.5,90,-157.6,2.82099148051455,3.02090818697021
2.5,90,-157.5,3.0587290638436,2.7737272831544
2.5,90,-157.4,3.27463632931432,2.50828431513323
2.5,90,-157.3,3.46735636868224,2.22651700833594
2.5,90,-157.2,3.63570460421131,1.93045901902759
2.5,90,-157.1,3.77867502665968,1.62222462781303
2.5,90,-157,3.89544507994397,1.30399309138484
2.5,90,-156.9,3.98537918191736,0.977992771183247
2.5,90,-156.8,4.04803088097188,0.646485156724646
2.5,90,-156.7,4.08314365819562,0.311748899574402
2.5,90,-156.6,4.09065039451058,-0.0239360286768282
2.5,90,-156.5,4.07067153152012,-0.358303944483124
2.5,90,-156.4,4.02351196364228,-0.689118720653708
2.5,90,-156.3,3.94965670744285,-1.01418861393628
2.5,90,-156.2,3.84976540185774,-1.33138055636653
2.5,90,-156.1,3.72466570016509,-1.63863382090957
2.5,90,-156,3.57534562109503,-1.93397297845446
2.5,90,-155.9,3.40294493231961,-2.21552007019448
2.5,90,-155.8,3.20874564472027,-2.48150592677075
2.5,90,-155.7,2.99416170026888,-2.73028057320289
2.5,90,-155.6,2.76072794006928,-2.96032266651057
2.5,90,-155.5,2.51008844208158,-3.17024792097905
2.5,90,-155.4,2.24398432029708,-3.35881648416771
2.5,90,-155.3,1.96424107864699,-3.5249392349458
2.5,90,-155.2,1.67275561373269,-3.66768298299347
2.5,90,-155.1,1.37148296057167,-3.78627455727352
2.5,90,-155,1.06242287498441,-3.88010377890055
2.5,90,-154.9,0.74760634503479,-3.94872532155374
2.5,90,-154.8,0.4290821221036,-3.99185947005021
2.5,90,-154.7,0.108903359762856,-4.00939179486729
2.5,90,-154.6,-0.210885554336772,-4.0013717672341
2.5,90,-154.5,-0.528261891813553,-3.96801034586607
2.5,90,-154.4,-0.841237124300772,-3.90967657245711
2.5,90,-154.3,-1.14786903809031,-3.82689321864411
2.5,90,-154.2,-1.44627335387218,-3.720331532292
2.5,90,-154.1,-1.73463478779023,-3.59080513559586
2.5,90,-154,-2.0112174953303,-3.43926313164275
2.5,90,-153.9,-2.27437484507522,-3.2667824797114
2.5,90,-153.8,-2.52255847506029,-3.0745597027032
2.5,90,-153.7,-2.75432659029041,-2.86390199269368
2.5,90,-153.6,-2.96835146589223,-2.63621778267077
2.5,90,-153.5,-3.16342612633061,-2.39300685408716
2.5,90,-153.4,-3.33847017706594,-2.13585005091694
2.5,90,-153.3,-3.49253477094045,-1.8663986714713
2.5,90,-153.2,-3.62480669740621,-1.58636360932225
2.5,90,-153.1,-3.73461158841581,-1.29750431431882
2.5,90,-153,-3.82141624035496,-1.00161764387786
2.5,90,-152.9,-3.88483005676969,-0.700526673520687
2.5,90,-152.8,-3.92460562180654,-0.39606953402274
2.5,90,-152.7,-3.94063841921259,-0.0900883405828813
2.5,90,-152.6,-3.93296571641412,0.215581722877128
2.5,90,-152.5,-3.9017646375873,0.519123103773519
2.5,90,-152.4,-3.84734945373649,0.818746307644801
2.5,90,-152.3,-3.77016812159086,1.11269999714378
2.5,90,-152.2,-3.67079810660892,1.39928071205517
2.5,90,-152.1,-3.54994152853476,1.67684216267515
2.5,90,-152,-3.40841967077356,1.94380405256407
2.5,90,-151.9,-3.2471668973471,2.19866039048205
2.5,90,-151.8,-3.06722402334883,2.43998725521621
2.5,90,-151.7,-2.86973118664759,2.66644998097615
2.5,90,-151.6,-2.6559202700927,2.87680973504538
2.5,90,-151.5,-2.42710692465475,3.0699294634098
2.5,90,-151.4,-2.18468224480733,3.2447791841094
2.5,90,-151.3,-1.93010414802188,3.40044061205975
2.5,90,-151.2,-1.66488851052044,3.53611110304345
2.5,90,-151.1,-1.39060011142559,3.65110690845554
2.5,90,-151,-1.10884343716924,3.74486573619039
2.5,90,-150.9,-0.821253397493744,3.81694861675635
2.5,90,-150.8,-0.529486003605442,3.86704107729251
2.5,90,-150.7,-0.235209058044814,3.89495362961916
2.5,90,-150.6,0.0599070953712859,3.90062158177355
2.5,90,-150.5,0.354198714585462,3.88410418565325
2.5,90,-150.4,0.64601764994659,3.84558313640202
2.5,90,-150.3,0.933740138854024,3.78536044202309
2.5,90,-150.2,1.21577536268545,3.70385568438268
2.5,90,-150.1,1.4905737263325,3.60160269527132
2.5,90,-150,1.75663482282832,3.47924567351606
2.5,90,-149.9,2.01251504781566,3.33753477128234
2.5,90,-149.8,2.25683483096699,3.17732117966726
2.5,90,-149.7,2.48828545390867,2.99955174546614
2.5,90,-149.6,2.70563542671099,2.80526315259254
2.5,90,-149.5,2.9077363975743,2.59557570304602
2.5,90,-149.4,3.09352857295047,2.37168673355862
2.5,90,-149.3,3.26204562798785,2.13486370510522
2.5,90,-149.2,3.4124190898559,1.88643700334249
2.5,90,-149.1,3.5438821791902,1.62779248874708
2.5,90,-149,3.65577309758842,1.36036383575454
2.5,90,-148.9,3.74753775177033,1.08562470057007
2.5,90,-148.8,3.81873190768998,0.805080757517713
2.5,90,-148.7,3.8690227705378,0.520261643838226
2.5,90,-148.6,3.8981899891955,0.232712852723279
2.5,90,-148.5,3.90612608629435,-0.0560123858983663
2.5,90,-148.4,3.89283631757309,-0.344361197729237
2.5,90,-148.3,3.85843796672849,-0.630789091105702
2.5,90,-148.2,3.80315908439192,-0.913767880825415
2.5,90,-148.1,3.72733668224345,-1.19179347184271
2.5,90,-148,3.6314143955846,-1.46339346686251
2.5,90,-147.9,3.51593962992552,-1.72713456297795
2.5,90,-147.8,3.38156020929666,-1.9816297037417
2.5,90,-147.7,3.22902054606143,-2.22554495442503
2.5,90,-147.6,3.05915735398158,-2.45760606969919
2.5,90,-147.5,2.8728949281621,-2.67660472456808
2.5,90,-147.4,2.67124001727493,-2.88140438108008
2.5,90,-147.3,2.45527631512177,-3.07094576514953
2.5,90,-147.2,2.2261586001432,-3.24425192971475
2.5,90,-147.1,1.9851065529063,-3.40043288244689
2.5,90,-147,1.73339828290254,-3.53868975829391
2.5,90,-146.9,1.4723635971555,-3.65831851929078
2.5,90,-146.8,1.20337704417075,-3.75871316628304
2.5,90,-146.7,0.92785076765034,-3.83936844948952
2.5,90,-146.6,0.647227205141425,-3.89988206716178
2.5,90,-146.5,0.362971667385125,-3.93995634397606
2.5,90,-146.4,0.0765648345772358,-3.95939938320801
2.5,90,-146.3,-0.210504793959754,-3.95812568918383
2.5,90,-146.2,-0.4967484600632,-3.93615625896235
2.5,90,-146.1,-0.780684680374419,-3.8936181446726
2.5,90,-146,-1.06084671693333,-3.83074349039952
2.5,90,-145.9,-1.33578994866975,-3.74786804996724
2.5,90,-145.8,-1.60409910825685,-3.64542919440299
2.5,90,-145.7,-1.86439534947335,-3.52396342026492
2.5,90,-145.6,-2.11534311106205,-3.3841033723738
2.5,90,-145.5,-2.35565674407663,-3.22657439678782
2.5,90,-145.4,-2.5841068708638,-3.05219064209534
2.5,90,-145.3,-2.79952644514213,-2.86185072925513
2.5,90,-145.2,-3.00081648409656,-2.65653301228312
2.5,90,-145.1,-3.18695144501173,-2.43729045405184
2.5,90,-145,-3.3569842207065,-2.20524514332851
2.5,90,-144.9,-3.5100507299009,-1.96158248091721
2.5,90,-144.8,-3.64537408063951,-1.70754506437937
2.5,90,-144.7,-3.76226828699945,-1.44442630227787
2.5,90,-144.6,-3.86014152151951,-1.17356379021475
2.5,90,-144.5,-3.93849888809059,-0.896332482098031
2.5,90,-144.4,-3.99694470243127,-0.614137691082519
2.5,90,-144.3,-4.03518426973065,-0.328407955461068
2.5,90,-144.2,-4.0530251515551,-0.0405878054484507
2.5,90,-144.1,-4.05037791667909,0.247869532721662
2.5,90,-144,-4.02725637309582,0.535509458667464
2.5,90,-143.9,-3.98377728107995,0.820883308865323
2.5,90,-143.8,-3.92015954979757,1.10255562003912
2.5,90,-143.7,-3.83672292257375,1.37911130844395
2.5,90,-143.6,-3.73388615852204,1.64916272901204
2.5,90,-143.5,-3.61216472079835,1.91135657897112
2.5,90,-143.4,-3.47216798425056,2.16438061137244
2.5,90,-143.3,-3.3145959776804,2.40697012497559
2.5,90,-143.2,-3.14023567830215,2.63791419812319
2.5,90,-143.1,-2.94995687826093,2.85606163559519
2.5,90,-143,-2.74470764524705,3.06032659895498
2.5,90,-142.9,-2.52550940130343,3.24969389257552
2.5,90,-142.8,-2.29345164585367,3.42322387936108
2.5,90,-142.7,-2.04968635077187,3.58005700214293
2.5,90,-142.6,-1.79542205696154,3.7194178888176
2.5,90,-142.5,-1.53191770339496,3.84061902150462
2.5,90,-142.4,-1.26047622088821,3.94306395230901
2.5,90,-142.3,-0.982437924029579,4.02625005067772
2.5,90,-142.2,-0.699173735646326,4.08977076981657
2.5,90,-142.1,-0.412078278973056,4.13331742217808
2.5,90,-142,-0.122562873272976,4.15668045662225
2.5,90,-141.9,0.167951530941991,4.15975023247946
2.5,90,-141.8,0.458041440748313,4.14251728839164
2.5,90,-141.7,0.746287897359445,4.10507210645904
2.5,90,-141.6,1.03128350423619,4.04760437486226
2.5,90,-141.5,1.31163937099983,3.97040175474482
2.5,90,-141.4,1.58599193797066,3.87384815971895
2.5,90,-141.3,1.85300964692851,3.75842155887915
2.5,90,-141.2,2.11139942464691,3.6246913166615
2.5,90,-141.1,2.35991294688604,3.47331508525872
2.5,90,-141,2.59735265183509,3.30503526757591
2.5,90,-140.9,2.82257747346114,3.12067507088067
2.5,90,-140.8,3.03450826684336,2.92113417334827
2.5,90,-140.7,3.23213289933686,2.70738402761923
2.5,90,-140.6,3.41451098330639,2.48046282726309
2.5,90,-140.5,3.58077822819273,2.24147016366453
2.5,90,-140.4,3.73015039180073,1.99156140231575
2.5,90,-140.3,3.86192681292526,1.73194180879596
2.5,90,-140.2,3.97549350974009,1.46386045584512
