"Freq [GHz]","Phi [deg]","Theta [deg]","re(rEX) [V]","im(rEX) [V]"
2.5,90,-180,-1.87150392782005,3.86382441291891
2.5,90,-179.9,-1.76332472510428,3.91306720486518
2.5,90,-179.8,-1.65385113803903,3.95930291105905
2.5,90,-179.7,-1.54316501726564,4.00249510512312
2.5,90,-179.6,-1.43134965779423,4.04260952370034
2.5,90,-179.5,-1.31848975874815,4.0796141689397
2.5,90,-179.4,-1.20467137266823,4.1134794108053
2.5,90,-179.3,-1.0899818442075,4.14417808804526
2.5,90,-179.2,-0.974509738181078,4.17168560664934
2.5,90,-179.1,-0.858344757072411,4.19598003463142
2.5,90,-179,-0.741577648230826,4.21704219199524
2.5,90,-178.9,-0.624300101130088,4.23485573477912
2.5,90,-178.8,-0.506604635185616,4.24940723212656
2.5,90,-178.7,-0.388584478752352,4.26068623539489
2.5,90,-178.6,-0.270333440041899,4.26868533839209
2.5,90,-178.5,-0.151945770804902,4.27340022792195
2.5,90,-178.4,-0.0335160237235506,4.27482972391853
2.5,90,-178.3,0.0848610954559104,4.27297580856154
2.5,90,-178.2,0.203090879945433,4.2678436438826
2.5,90,-178.1,0.321078776927432,4.25944157749833
2.5,90,-178,0.438730544346244,4.24778113623609
2.5,90,-177.9,0.555952408236155,4.23287700755294
2.5,90,-177.8,0.672651219328535,4.21474700878393
2.5,90,-177.7,0.788734607680073,4.19341204439176
2.5,90,-177.6,0.90411113407984,4.16889605152439
2.5,90,-177.5,1.01869043702437,4.14122593431801
2.5,90,-177.4,1.13238337409628,4.11043148750842
2.5,90,-177.3,1.2451021566422,4.07654531003375
2.5,90,-177.2,1.3567604767222,4.03960270942162
2.5,90,-177.1,1.46727362538906,3.99964159785611
2.5,90,-177,1.57655860145709,3.95670238090959
2.5,90,-176.9,1.68453421002842,3.91082784000349
2.5,90,-176.8,1.79112115016635,3.86206300972707
2.5,90,-176.7,1.89624209123121,3.81045505119408
2.5,90,-176.6,1.9998217375272,3.75605312265497
2.5,90,-176.5,2.10178688104806,3.69890824860204
2.5,90,-176.4,2.20206644224736,3.63907318861288
2.5,90,-176.3,2.30059149890232,3.57660230716623
2.5,90,-176.2,2.39729530327894,3.51155144564073
2.5,90,-176.1,2.49211328794465,3.44397779766595
2.5,90,-176,2.58498306070709,3.373939788941
2.5,90,-175.9,2.67584438928399,3.30149696256719
2.5,90,-175.8,2.7646391764289,3.22670987085916
2.5,90,-175.7,2.85131142634642,3.14963997450526
2.5,90,-175.6,2.93580720332929,3.07034954984322
2.5,90,-175.5,3.01807458363684,2.98890160490245
2.5,90,-175.4,3.09806360170708,2.90535980474242
2.5,90,-175.3,3.17572619185496,2.81978840648718
2.5,90,-175.2,3.25101612665298,2.73225220432212
2.5,90,-175.1,3.32388895321992,2.64281648458233
2.5,90,-175,3.39430192865654,2.55154699092265
2.5,90,-174.9,3.46221395586393,2.45850989942196
2.5,90,-174.8,3.5275855209615,2.36377180333741
2.5,90,-174.7,3.59037863348718,2.26739970709198
2.5,90,-174.6,3.6505567705118,2.16946102895227
2.5,90,-174.5,3.70808482573566,2.07002361173261
2.5,90,-174.4,3.76292906455585,1.96915574075161
2.5,90,-174.3,3.81505708600207,1.86692616816519
2.5,90,-174.2,3.86443779233504,1.76340414271101
2.5,90,-174.1,3.91104136698797,1.65865944382177
2.5,90,-174,3.95483926140921,1.55276241900106
2.5,90,-173.9,3.99580419123335,1.44578402330688
2.5,90,-173.8,4.03391014207338,1.33779585975236
2.5,90,-173.7,4.06913238508537,1.2288702194156
2.5,90,-173.6,4.10144750231605,1.11908012004672
2.5,90,-173.5,4.1308334217006,1.00849934197253
2.5,90,-173.4,4.1572694614368,0.897202460128225
2.5,90,-173.3,4.18073638332403,0.785264871088185
2.5,90,-173.2,4.20121645452214,0.672762814026425
2.5,90,-173.1,4.21869351705926,0.559773384609535
2.5,90,-173,4.23315306429905,0.446374540909935
2.5,90,-172.9,4.24458232346983,0.332645100524594
2.5,90,-172.8,4.25297034326048,0.218664728193305
2.5,90,-172.7,4.25830808540351,0.104513913326656
2.5,90,-172.6,4.26058851909383,-0.00972606301868639
2.5,90,-172.5,4.25980671703514,-0.123973172049862
2.5,90,-172.4,4.25595995186367,-0.238144692225808
2.5,90,-172.3,4.2490477916729,-0.352157275379354
2.5,90,-172.2,4.23907219335252,-0.465927023886082
2.5,90,-172.1,4.22603759246076,-0.5793695786528
2.5,90,-172,4.2099509883712,-0.692400217560133
2.5,90,-171.9,4.19082202347293,-0.804933963858417
2.5,90,-171.8,4.16866305525576,-0.916885703888183
2.5,90,-171.7,4.14348922018036,-1.02817031337364
2.5,90,-171.6,4.11531848831424,-1.13870279142601
2.5,90,-171.5,4.08417170780945,-1.24839840128981
2.5,90,-171.4,4.05007263840348,-1.35717281677384
2.5,90,-171.3,4.01304797324155,-1.46494227323061
2.5,90,-171.2,3.9731273484435,-1.57162372188206
2.5,90,-171.1,3.93034333997133,-1.67713498623873
2.5,90,-171,3.88473144749143,-1.78139491932393
2.5,90,-170.9,3.8363300650682,-1.88432356039333
2.5,90,-170.8,3.78518043866976,-1.98584228983607
2.5,90,-170.7,3.73132661061166,-2.08587398095432
2.5,90,-170.6,3.67481535120799,-2.18434314734405
2.5,90,-170.5,3.6156960780395,-2.28117608464224
2.5,90,-170.4,3.55402076338412,-2.37630100546115
2.5,90,-170.3,3.48984383048428,-2.46964816640116
2.5,90,-170.2,3.42322203944608,-2.56114998611679
2.5,90,-170.1,3.35421436367744,-2.6507411535057
2.5,90,-170,3.28288185787201,-2.73835872519745
2.5,90,-169.9,3.20928751863483,-2.82394221163338
2.5,90,-169.8,3.13349613892051,-2.9074336511542
2.5,90,-169.7,3.05557415751605,-2.98877767164135
2.5,90,-169.6,2.97558950484688,-3.06792153939415
2.5,90,-169.5,2.89361144641574,-3.14481519506356
2.5,90,-169.4,2.80971042519998,-3.2194112766031
2.5,90,-169.3,2.723957904332,-3.2916651293388
2.5,90,-169.2,2.63642621137228,-3.3615348033973
2.5,90,-169.1,2.54718838545288,-3.42898103886702
2.5,90,-169,2.4563180285226,-3.49396723919689
2.5,90,-168.9,2.36388916186504,-3.5564594334599
2.5,90,-168.8,2.26997608898562,-3.61642622822424
2.5,90,-168.7,2.1746532658774,-3.67383874987976
2.5,90,-168.6,2.07799517957673,-3.72867057836236
2.5,90,-168.5,1.98007623581109,-3.78089767330168
2.5,90,-168.4,1.88097065642441,-3.83049829368715
2.5,90,-168.3,1.7807523871397,-3.87745291220406
2.5,90,-168.2,1.67949501608836,-3.92174412543302
2.5,90,-168.1,1.5772717034011,-3.96335656113359
2.5,90,-168,1.47415512201653,-4.00227678384561
2.5,90,-167.9,1.37021740972777,-4.03849320003796
2.5,90,-167.8,1.26553013234735,-4.07199596401814
2.5,90,-167.7,1.16016425773795,-4.10277688578289
2.5,90,-167.6,1.05419014032519,-4.13082934194375
2.5,90,-167.5,0.947677515583844,-4.15614819080171
2.5,90,-167.4,0.840695503872007,-4.17872969257198
2.5,90,-167.3,0.733312622878406,-4.19857143567551
2.5,90,-167.2,0.625596807850131,-4.21567226991882
2.5,90,-167.1,0.517615438679472,-4.23003224727876
2.5,90,-167,0.409435372854009,-4.24165257089625
2.5,90,-166.9,0.301122983212024,-4.25053555276325
2.5,90,-166.8,0.192744199395748,-4.25668458046303
2.5,90,-166.7,0.0843645518615361,-4.2601040931948
2.5,90,-166.6,-0.0239507827137535,-4.26079956718412
2.5,90,-166.5,-0.132136935796275,-4.2587775104491
2.5,90,-166.4,-0.240129302283842,-4.25404546676318
2.5,90,-166.3,-0.347863497851535,-4.24661202852828
2.5,90,-166.2,-0.45527531944668,-4.23648685814954
2.5,90,-166.1,-0.562300709973544,-4.22368071738638
2.5,90,-166,-0.668875728143264,-4.20820550404466
2.5,90,-165.9,-0.774936524386378,-4.19007429527421
2.5,90,-165.8,-0.8804193236379,-4.16930139664433
2.5,90,-165.7,-0.985260415706173,-4.14590239608943
2.5,90,-165.6,-1.08939615382983,-4.11989422174847
2.5,90,-165.5,-1.1927629619137,-4.09129520266518
2.5,90,-165.4,-1.29529735081341,-4.06012513127334
2.5,90,-165.3,-1.3969359439153,-4.02640532656166
2.5,90,-165.2,-1.49761551213036,-3.99015869679736
2.5,90,-165.1,-1.59727301829308,-3.95140980068621
2.5,90,-165,-1.69584567082788,-3.91018490585883
2.5,90,-164.9,-1.79327098642014,-3.8665120436001
2.5,90,-164.8,-1.88948686130598,-3.82042105877762
2.5,90,-164.7,-1.98443165067783,-3.77194365397831
2.5,90,-164.6,-2.07804425559129,-3.72111342692675
2.5,90,-164.5,-2.17026421665616,-3.66796590033527
2.5,90,-164.4,-2.26103181369886,-3.61253854342237
2.5,90,-164.3,-2.35028817050046,-3.55487078443196
2.5,90,-164.2,-2.43797536364029,-3.49500401358991
2.5,90,-164.1,-2.52403653441416,-3.43298157604532
2.5,90,-164,-2.60841600274771,-3.36884875446006
2.5,90,-163.9,-2.69105938198907,-3.30265274103076
2.5,90,-163.8,-2.77191369344396,-3.23444259885005
2.5,90,-163.7,-2.8509274795075,-3.16426921263794
2.5,90,-163.6,-2.92805091425251,-3.09218522899819
2.5,90,-163.5,-3.00323591035436,-3.01824498647521
2.5,90,-163.4,-3.07643622126339,-2.94250443580697
2.5,90,-163.3,-3.14760753758346,-2.86502105088149
2.5,90,-163.2,-3.21670757667207,-2.78585373101316
2.5,90,-163.1,-3.28369616454775,-2.70506269525477
2.5,90,-163,-3.34853530927081,-2.62270936955312
2.5,90,-162.9,-3.41118926505389,-2.53885626763841
2.5,90,-162.8,-3.47162458645773,-2.45356686660901
2.5,90,-162.7,-3.52981017213383,-2.36690547823404
2.5,90,-162.6,-3.58571729768871,-2.2789371170443
2.5,90,-162.5,-3.63931963736166,-2.1897273663181
2.5,90,-162.4,-3.69059327432832,-2.09934224309226
2.5,90,-162.3,-3.73951669956602,-2.00784806333776
2.5,90,-162.2,-3.78607079933965,-1.91531130843696
2.5,90,-162.1,-3.83023883148902,-1.82179849408313
2.5,90,-162,-3.87200639081947,-1.72737604269377
2.5,90,-161.9,-3.91136136401268,-1.63211016038841
2.5,90,-161.8,-3.94829387458666,-1.53606671952778
2.5,90,-161.7,-3.98279621853822,-1.43931114774713
2.5,90,-161.6,-4.01486279139836,-1.34190832434168
2.5,90,-161.5,-4.0444900075197,-1.2439224847775
2.5,90,-161.4,-4.07167621249369,-1.14541713400892
2.5,90,-161.3,-4.09642158966362,-1.04645496918281
2.5,90,-161.2,-4.11872806175656,-0.947097812204291
2.5,90,-161.1,-4.13859918870224,-0.847406552527037
2.5,90,-161,-4.15604006273967,-0.747441100416239
2.5,90,-160.9,-4.17105720193236,-0.647260350816078
2.5,90,-160.8,-4.18365844322005,-0.546922157834759
2.5,90,-160.7,-4.19385283612949,-0.446483319743226
2.5,90,-160.6,-4.20165053824787,-0.345999574267896
2.5,90,-160.5,-4.20706271353222,-0.245525603845129
2.5,90,-160.4,-4.21010143448469,-0.145115050397131
2.5,90,-160.3,-4.21077958916962,-0.0448205390866568
2.5,90,-160.2,-4.20911079398275,0.0553062895883338
2.5,90,-160.1,-4.20510931300811,0.155214740086321
2.5,90,-160,-4.19878998471361,0.254855015306198
2.5,90,-159.9,-4.19016815664424,0.35417816413839
2.5,90,-159.8,-4.17925962867215,0.453136024017971
2.5,90,-159.7,-4.16608060525846,0.551681159462279
2.5,90,-159.6,-4.15064765707119,0.649766797612422
2.5,90,-159.5,-4.13297769219151,0.747346761823536
2.5,90,-159.4,-4.11308793702512,0.844375404360664
2.5,90,-159.3,-4.09099592692013,0.940807539259049
2.5,90,-159.2,-4.06671950637794,1.03659837639575
2.5,90,-159.1,-4.04027683863046,1.13170345779664
2.5,90,-159,-4.01168642424723,1.22607859716917
2.5,90,-158.9,-3.98096712833075,1.31967982360394
2.5,90,-158.8,-3.94813821575835,1.41246333033434
2.5,90,-158.7,-3.91321939383581,1.50438542937608
2.5,90,-158.6,-3.87623086164283,1.59540251279454
2.5,90,-158.5,-3.83719336527297,1.68547102126485
2.5,90,-158.4,-3.79612825810397,1.77454742049957
2.5,90,-158.3,-3.7530575651766,1.86258818602322
2.5,90,-158.2,-3.70800405071353,1.94954979667154
2.5,90,-158.1,-3.6609912877746,2.035388737089
2.5,90,-158,-3.61204372902028,2.12006150939104
2.5,90,-157.9,-3.5611867775433,2.2035246540478
2.5,90,-157.8,-3.50844685672756,2.28573477993857
2.5,90,-157.7,-3.4538514781043,2.36664860341728
2.5,90,-157.6,-3.39742930619842,2.44622299612449
2.5,90,-157.5,-3.33921021939116,2.52441504117859
2.5,90,-157.4,-3.27922536586987,2.60118209728142
2.5,90,-157.3,-3.21750721379022,2.67648187018118
2.5,90,-157.2,-3.15408959483992,2.75027249084995
2.5,90,-157.1,-3.08900774046616,2.82251259965454
2.5,90,-157,-3.02229831010912,2.89316143572965
2.5,90,-156.9,-2.95399941087191,2.96217893070088
2.5,90,-156.8,-2.88415060815035,3.02952580585358
2.5,90,-156.7,-2.81279292684464,3.09516367180219
2.5,90,-156.6,-2.73996884287708,3.15905512968327
2.5,90,-156.5,-2.66572226484419,3.22116387287538
2.5,90,-156.4,-2.59009850573891,3.28145478823912
2.5,90,-156.3,-2.51314424478386,3.33989405587206
2.5,90,-156.2,-2.43490747952319,3.39644924638575
2.5,90,-156.1,-2.35543746842399,3.45108941473433
2.5,90,-156,-2.2747846643387,3.50378518965776
2.5,90,-155.9,-2.1930006392767,3.55450885784543
2.5,90,-155.8,-2.11013800102462,3.60323444197816
2.5,90,-155.7,-2.02625030223984,3.64993777186795
2.5,90,-155.6,-1.94139194272022,3.69459654798354
2.5,90,-155.5,-1.85561806562341,3.73719039672657
2.5,90,-155.4,-1.76898444847137,3.77770091690539
2.5,90,-155.3,-1.68154738982839,3.81611171694195
2.5,90,-155.2,-1.59336359258465,3.85240844243983
2.5,90,-155.1,-1.50449004481075,3.88657879383759
2.5,90,-155,-1.4149838991716,3.91861253397003
2.5,90,-154.9,-1.32490235190145,3.94850148546005
2.5,90,-154.8,-1.23430252234386,3.97623951796396
2.5,90,-154.7,-1.14324133405218,4.00182252539293
2.5,90,-154.6,-1.05177539842853,4.02524839333054
2.5,90,-154.5,-0.959960901849937,4.04651695696211
2.5,90,-154.4,-0.867853497193601,4.06562994992222
2.5,90,-154.3,-0.775508200625108,4.08259094455398
2.5,90,-154.2,-0.682979294458527,4.09740528415439
2.5,90,-154.1,-0.5903202368334,4.11008000785531
2.5,90,-154,-0.497583578882776,4.12062376885725
2.5,90,-153.9,-0.404820889989582,4.12904674679329
2.5,90,-153.8,-0.312082691645287,4.1353605550526
2.5,90,-153.7,-0.219418400337625,4.13957814393597
2.5,90,-153.6,-0.126876279802953,4.14171370055022
2.5,90,-153.5,-0.0345034028839976,4.14178254637291
2.5,90,-153.4,0.057654376860712,4.13980103343436
2.5,90,-153.3,0.149552443747532,4.13578644006938
2.5,90,-153.2,0.241147428805969,4.12975686718742
2.5,90,-153.1,0.332397209007337,4.12173113599655
2.5,90,-153,0.423260897120346,4.11172868809389
2.5,90,-152.9,0.513698822519359,4.09976948880382
2.5,90,-152.8,0.603672503358143,4.08587393460511
2.5,90,-152.7,0.693144610602788,4.07006276543999
2.5,90,-152.6,0.782078924493355,4.05235698264261
2.5,90,-152.5,0.870440284073834,4.03277777316176
2.5,90,-152.4,0.958194530491816,4.01134644068403
2.5,90,-152.3,1.04530844482527,3.98808434418941
2.5,90,-152.2,1.13174968124056,3.96301284439236
2.5,90,-152.1,1.21748669632476,3.93615325843896
2.5,90,-152,1.30248867546566,3.9075268231447
2.5,90,-151.9,1.38672545717372,3.87715466696993
2.5,90,-151.8,1.47016745625302,3.84505779084093
2.5,90,-151.7,1.55278558673095,3.81125705783504
2.5,90,-151.6,1.63455118545082,3.77577319165961
2.5,90,-151.5,1.71543593721688,3.73862678376714
2.5,90,-151.4,1.79541180235789,3.69983830886362
2.5,90,-151.3,1.87445094754357,3.65942814848543
2.5,90,-151.2,1.95252568064898,3.61741662224121
2.5,90,-151.1,2.02960839041473,3.57382402624232
2.5,90,-151,2.10567149159695,3.52867067817616
2.5,90,-150.9,2.1806873762406,3.48197696841471
2.5,90,-150.8,2.25462837164382,3.43376341649406
2.5,90,-150.7,2.32746670551007,3.38405073225156
2.5,90,-150.6,2.39917447870936,3.33285988086489
2.5,90,-150.5,2.46972364599173,3.28021215100328
2.5,90,-150.4,2.5390860049139,3.22612922527425
2.5,90,-150.3,2.60723319315766,3.17063325213072
2.5,90,-150.2,2.67413669433373,3.11374691839298
2.5,90,-150.1,2.73976785228021,3.05549352153788
2.5,90,-150,2.80409789378157,2.99589704091278
2.5,90,-149.9,2.86709795955024,2.93498220704655
2.5,90,-149.8,2.9287391432338,2.87277456825042
2.5,90,-149.7,2.98899253813229,2.80930055373088
2.5,90,-149.6,3.04782929123655,2.74458753247283
2.5,90,-149.5,3.10522066412889,2.67866386719346
2.5,90,-149.4,3.16113810022235,2.61155896271683
2.5,90,-149.3,3.21555329775552,2.54330330817296
2.5,90,-149.2,3.26843828790648,2.47392851248538
2.5,90,-149.1,3.31976551734204,2.40346733267509
2.5,90,-149,3.36950793447848,2.33195369457646
2.5,90,-148.9,3.41763907869614,2.25942270563259
2.5,90,-148.8,3.46413317172457,2.18591065951014
2.5,90,-148.7,3.50896521039589,2.11145503235015
2.5,90,-148.6,3.55211105995302,2.03609447054695
2.5,90,-148.5,3.59354754709608,1.95986877002418
2.5,90,-148.4,3.63325255195334,1.88281884705392
2.5,90,-148.3,3.67120509817512,1.80498670073949
2.5,90,-148.2,3.70738544036694,1.72641536735649
2.5,90,-148.1,3.74177514810351,1.64714886681803
2.5,90,-148,3.77435718579715,1.56723214159758
2.5,90,-147.9,3.80511598773229,1.48671098850863
2.5,90,-147.8,3.83403752762153,1.40563198379979
2.5,90,-147.7,3.86110938208804,1.32404240208054
2.5,90,-147.6,3.8863207875332,1.24199012964342
2.5,90,-147.5,3.90966268990678,1.15952357279371
2.5,90,-147.4,3.93112778695881,1.07669156183777
2.5,90,-147.3,3.95071056261779,0.993543251414064
2.5,90,-147.2,3.96840731320734,0.910128017878687
2.5,90,-147.1,3.984216165283,0.826495354477699
2.5,90,-147,3.99813708494158,0.742694765052973
2.5,90,-146.9,4.01017187852679,0.658775657035871
2.5,90,-146.8,4.02032418472604,0.574787234484334
2.5,90,-146.7,4.02859945812392,0.490778391913222
2.5,90,-146.6,4.03500494434693,0.406797609656522
2.5,90,-146.5,4.03954964700153,0.322892851481519
2.5,90,-146.4,4.04224428667228,0.239111465151921
2.5,90,-146.3,4.04310125230873,0.155500086606877
2.5,90,-146.2,4.04213454538807,0.072104548388337
2.5,90,-146.1,4.0393597172951,-0.0110302070903757
2.5,90,-146,4.0347938004108,-0.0938602088864186
2.5,90,-145.9,4.02845523344641,-0.176342532979204
2.5,90,-145.8,4.0203637816001,-0.258435371383722
2.5,90,-145.7,4.01054045214787,-0.340098094531934
2.5,90,-145.6,3.99900740611033,-0.421291306585988
2.5,90,-145.5,3.98578786665995,-0.501976893407265
2.5,90,-145.4,3.9709060249517,-0.58211806296539
2.5,90,-145.3,3.9543869440714,-0.661679378034339
2.5,90,-145.2,3.93625646180261,-0.740626781084549
2.5,90,-145.1,3.91654109291235,-0.81892761134276
2.5,90,-145,3.89526793165084,-0.896550614053075
2.5,90,-144.9,3.87246455514854,-0.973465942032842
2.5,90,-144.8,3.84815892837755,-1.04964514967672
2.5,90,-144.7,3.82237931132163,-1.12506117961861
2.5,90,-144.6,3.79515416897299,-1.19968834231563
2.5,90,-144.5,3.76651208474124,-1.27350228887016
2.5,90,-144.4,3.73648167782499,-1.34647997745312
2.5,90,-144.3,3.70509152505572,-1.4185996337373
2.5,90,-144.2,3.67237008768055,-1.48984070578867
2.5,90,-144.1,3.63834564350372,-1.56018381390092
2.5,90,-144,3.60304622475716,-1.6296106958895
2.5,90,-143.9,3.5664995620192,-1.69810414838864
2.5,90,-143.8,3.52873303444684,-1.76564796471709
2.5,90,-143.7,3.48977362653245,-1.83222686989568
2.5,90,-143.6,3.44964789154033,-1.89782645341193
2.5,90,-143.5,3.4083819217226,-1.9624331003348
2.5,90,-143.4,3.36600132535807,-2.02603392138447
2.5,90,-143.3,3.32253121060279,-2.08861668256004
2.5,90,-143.2,3.27799617608639,-2.15016973492074
2.5,90,-143.1,3.23242030813593,-2.21068194510396
2.5,90,-143,3.18582718445754,-2.2701426271479
2.5,90,-142.9,3.13823988405784,-2.32854147616505
2.5,90,-142.8,3.08968100314061,-2.38586850438888
2.5,90,-142.7,3.04017267667086,-2.44211398008758
2.5,90,-142.6,2.98973660525867,-2.49726836980668
2.5,90,-142.5,2.93839408697768,-2.55132228436806
2.5,90,-142.4,2.88616605370122,-2.60426642901444
2.5,90,-142.3,2.83307311150889,-2.65609155804903
2.5,90,-142.2,2.77913558469194,-2.70678843427752
2.5,90,-142.1,2.72437356286463,-2.75634779351566
2.5,90,-142,2.66880695067206,-2.80476031438067
2.5,90,-141.9,2.61245551957267,-2.85201659353857
2.5,90,-141.8,2.55533896116551,-2.89810712653259
2.5,90,-141.7,2.4974769415286,-2.94302229427144
2.5,90,-141.6,2.43888915603531,-2.98675235520896
2.5,90,-141.5,2.37959538412006,-3.0292874432012
2.5,90,-141.4,2.31961554347383,-3.07061757098114
2.5,90,-141.3,2.25896974316217,-3.1107326391479
2.5,90,-141.2,2.19767833517493,-3.14962245052425
2.5,90,-141.1,2.13576196393683,-3.18727672969635
2.5,90,-141,2.07324161333098,-3.22368514751068
2.5,90,-140.9,2.01013865081411,-3.25883735026742
2.5,90,-140.8,1.9464748682308,-3.29272299331595
2.5,90,-140.7,1.88227251896594,-3.32533177872768
2.5,90,-140.6,1.81755435110831,-3.35665349669378
2.5,90,-140.5,1.75234363633381,-3.38667807027108
2.5,90,-140.4,1.68666419425434,-3.41539560307797
2.5,90,-140.3,1.62054041201673,-3.44279642952463
2.5,90,-140.2,1.55399725897587,-3.46887116714769
2.5,90,-140.1,1.48706029630648,-3.49361077060809
