"Freq [GHz]","Phi [deg]","Theta [deg]","re(rEX) [V]","im(rEX) [V]"
2.5,90,-180,-2.54188656502781,4.10399893067754
2.5,90,-179.9,-2.54207816336296,4.10420357224072
2.5,90,-179.8,-2.54225953400106,4.1043759498744
2.5,90,-179.7,-2.54243036102994,4.10451708565763
2.5,90,-179.6,-2.54259058936701,4.1046282092443
2.5,90,-179.5,-2.5427404221998,4.10471075165177
2.5,90,-179.4,-2.54288031543046,4.10476633667181
2.5,90,-179.3,-2.54301096921181,4.1047967699872
2.5,90,-179.2,-2.54313331670038,4.10480402610398
2.5,90,-179.1,-2.54324851018719,4.10479023323563
2.5,90,-179,-2.54335790480079,4.10475765629918
2.5,90,-178.9,-2.5434630400075,4.10470867820579
2.5,90,-178.8,-2.54356561916203,4.10464577964804
2.5,90,-178.7,-2.54366748738559,4.10457151760433
2.5,90,-178.6,-2.54377060806927,4.1044885027952
2.5,90,-178.5,-2.54387703831733,4.10439937633899
2.5,90,-178.4,-2.54398890365702,4.10430678586339
2.5,90,-178.3,-2.54410837235004,4.10421336133551
2.5,90,-178.2,-2.54423762964376,4.10412169087658
2.5,90,-178.1,-2.54437885229992,4.10403429682666
2.5,90,-178,-2.54453418373281,4.10395361232245
2.5,90,-177.9,-2.54470571007912,4.10388195864419
2.5,90,-177.8,-2.54489543750766,4.1038215235788
2.5,90,-177.7,-2.54510527105907,4.10377434103424
2.5,90,-177.6,-2.54533699528351,4.10374227212489
2.5,90,-177.5,-2.54559225691909,4.10372698793072
2.5,90,-177.4,-2.54587254982496,4.10372995411266
2.5,90,-177.3,-2.54617920235188,4.10375241754545
2.5,90,-177.2,-2.54651336729898,4.1037953951048
2.5,90,-177.1,-2.54687601457005,4.10385966472109
2.5,90,-177,-2.54726792660574,4.10394575878505
2.5,90,-176.9,-2.54768969662951,4.10405395996362
2.5,90,-176.8,-2.54814172970757,4.10418429945637
2.5,90,-176.7,-2.54862424658409,4.10433655769452
2.5,90,-176.6,-2.54913729021554,4.10451026745688
2.5,90,-176.5,-2.54968073489158,4.104704719349
2.5,90,-176.4,-2.55025429779459,4.10491896956541
2.5,90,-176.3,-2.55085755281739,4.1051518498288
2.5,90,-176.2,-2.55148994642784,4.10540197937577
2.5,90,-176.1,-2.55215081534196,4.10566777883606
2.5,90,-176,-2.55283940574257,4.10594748583129
2.5,90,-175.9,-2.55355489375973,4.10623917210097
2.5,90,-175.8,-2.55429640691278,4.10654076194706
2.5,90,-175.7,-2.55506304620051,4.10685005177488
2.5,90,-175.6,-2.55585390851766,4.10716473049724
2.5,90,-175.5,-2.55666810907182,4.10748240056084
2.5,90,-175.4,-2.55750480347453,4.10780059934827
2.5,90,-175.3,-2.55836320918537,4.10811682070765
2.5,90,-175.2,-2.55924262599638,4.10842853636193
2.5,90,-175.1,-2.56014245525714,4.10873321695422
2.5,90,-175,-2.56106221755802,4.10902835249197
2.5,90,-174.9,-2.56200156860973,4.1093114719622
2.5,90,-174.8,-2.56296031308172,4.10958016190242
2.5,90,-174.7,-2.5639384161893,4.10983208372609
2.5,90,-174.6,-2.5649360128497,4.1100649896189
2.5,90,-174.5,-2.56595341425995,4.11027673684078
2.5,90,-174.4,-2.56699111178385,4.1104653002898
2.5,90,-174.3,-2.56804977807187,4.11062878320642
2.5,90,-174.2,-2.56913026537438,4.11076542592051
2.5,90,-174.1,-2.5702336010468,4.1108736125683
2.5,90,-174,-2.57136098028266,4.11095187573201
2.5,90,-173.9,-2.57251375614789,4.110998898981
2.5,90,-173.8,-2.57369342702607,4.11101351731914
2.5,90,-173.7,-2.57490162161909,4.11099471556888
2.5,90,-173.6,-2.57614008168076,4.11094162474816
2.5,90,-173.5,-2.57741064269171,4.11085351652011
2.5,90,-173.4,-2.57871521271166,4.11072979581935
2.5,90,-173.3,-2.58005574967029,4.11056999178014
2.5,90,-173.2,-2.58143423737947,4.11037374711224
2.5,90,-173.1,-2.5828526605672,4.11014080608806
2.5,90,-173,-2.58431297924806,4.10987100132161
2.5,90,-172.9,-2.58581710275434,4.10956423953284
2.5,90,-172.8,-2.5873668637582,4.10922048650307
2.5,90,-172.7,-2.58896399261634,4.10883975143544
2.5,90,-172.6,-2.59061009236604,4.10842207094092
2.5,90,-172.5,-2.59230661469425,4.1079674928736
2.5,90,-172.4,-2.59405483719034,4.10747606023957
2.5,90,-172.3,-2.5958558421779,4.10694779540178
2.5,90,-172.2,-2.59771049740211,4.10638268479825
2.5,90,-172.1,-2.59961943882665,4.10578066438354
2.5,90,-172,-2.6015830557686,4.10514160599348
2.5,90,-171.9,-2.60360147857112,4.10446530482051
2.5,90,-171.8,-2.60567456898258,4.1037514681724
2.5,90,-171.7,-2.60780191337772,4.10299970567035
2.5,90,-171.6,-2.60998281892156,4.1022095210238
2.5,90,-171.5,-2.61221631274049,4.10138030549914
2.5,90,-171.4,-2.61450114412839,4.10051133317777
2.5,90,-171.3,-2.61683578977824,4.09960175807644
2.5,90,-171.2,-2.61921846199276,4.09865061317912
2.5,90,-171.1,-2.62164711979149,4.09765681140577
2.5,90,-171,-2.62411948279613,4.0966191485189
2.5,90,-170.9,-2.62663304774268,4.09553630794476
2.5,90,-170.8,-2.62918510743708,4.09440686746201
2.5,90,-170.7,-2.63177277194175,4.09322930768739
2.5,90,-170.6,-2.63439299175391,4.09200202226576
2.5,90,-170.5,-2.63704258271299,4.09072332965049
2.5,90,-170.4,-2.63971825235453,4.08939148634045
2.5,90,-170.3,-2.64241662741106,4.08800470142184
2.5,90,-170.2,-2.64513428214792,4.08656115224668
2.5,90,-170.1,-2.64786776721313,4.08505900106575
2.5,90,-170,-2.65061363867546,4.0834964124215
2.5,90,-169.9,-2.6533684869242,4.08187157109705
2.5,90,-169.8,-2.65612896510735,4.08018270041011
2.5,90,-169.7,-2.6588918167923,4.07842808063569
2.5,90,-169.6,-2.66165390254414,4.0766060673399
2.5,90,-169.5,-2.66441222513162,4.07471510940689
2.5,90,-169.4,-2.66716395308924,4.07275376654479
2.5,90,-169.3,-2.66990644238539,4.0707207260613
2.5,90,-169.2,-2.67263725597123,4.06861481870822
2.5,90,-169.1,-2.6753541810121,4.06643503340408
2.5,90,-169,-2.67805524363272,4.06418053065708
2.5,90,-168.9,-2.68073872103891,4.06185065452456
2.5,90,-168.8,-2.6834031509113,4.05944494296239
2.5,90,-168.7,-2.68604733800044,4.05696313643535
2.5,90,-168.6,-2.68867035788724,4.05440518467951
2.5,90,-168.5,-2.69127155790733,4.05177125152834
2.5,90,-168.4,-2.69385055527244,4.04906171773616
2.5,90,-168.3,-2.69640723245541,4.04627718175528
2.5,90,-168.2,-2.69894172993842,4.04341845844591
2.5,90,-168.1,-2.70145443645461,4.04048657572137
2.5,90,-168,-2.70394597688307,4.03748276915423
2.5,90,-167.9,-2.70641719798333,4.03440847459161
2.5,90,-167.8,-2.70886915218065,4.03126531885042
2.5,90,-167.7,-2.71130307963405,4.02805510858414
2.5,90,-167.6,-2.71372038883797,4.02477981743337
2.5,90,-167.5,-2.71612263602313,4.02144157159111
2.5,90,-167.4,-2.71851150363369,4.01804263393088
2.5,90,-167.3,-2.72088877816567,4.01458538686176
2.5,90,-167.2,-2.72325632765588,4.01107231408777
2.5,90,-167.1,-2.72561607911094,4.00750598146098
2.5,90,-167,-2.72796999616282,4.00388901712691
2.5,90,-166.9,-2.73032005723028,4.00022409116825
2.5,90,-166.8,-2.73266823445572,3.99651389495776
2.5,90,-166.7,-2.73501647367243,3.99276112043353
2.5,90,-166.6,-2.73736667564131,3.98896843951008
2.5,90,-166.5,-2.73972067877548,3.98513848383652
2.5,90,-166.4,-2.74208024354951,3.98127382510812
2.5,90,-166.3,-2.74444703876472,3.977376956131
2.5,90,-166.2,-2.74682262981569,3.97345027283048
2.5,90,-166.1,-2.74920846907446,3.96949605738237
2.5,90,-166,-2.75160588847952,3.96551646263362
2.5,90,-165.9,-2.75401609438595,3.96151349796356
2.5,90,-165.8,-2.75644016470235,3.95748901672085
2.5,90,-165.7,-2.75887904830899,3.95344470535324
2.5,90,-165.6,-2.7613335667209,3.94938207432812
2.5,90,-165.5,-2.76380441792976,3.94530245092198
2.5,90,-165.4,-2.76629218232928,3.94120697393613
2.5,90,-165.3,-2.76879733060164,3.93709659037474
2.5,90,-165.2,-2.77132023341648,3.9329720540997
2.5,90,-165.1,-2.77386117277083,3.92883392645551
2.5,90,-165,-2.77642035477689,3.92468257883579
2.5,90,-164.9,-2.77899792368628,3.92051819714253
2.5,90,-164.8,-2.78159397692361,3.91634078806874
2.5,90,-164.7,-2.78420858088992,3.91215018711614
2.5,90,-164.6,-2.78684178728686,3.90794606824135
2.5,90,-164.5,-2.78949364970678,3.90372795500721
2.5,90,-164.4,-2.79216424023095,3.89949523310057
2.5,90,-164.3,-2.79485366577894,3.89524716406426
2.5,90,-164.2,-2.79756208395625,3.89098290007906
2.5,90,-164.1,-2.80028971815454,3.88670149962132
2.5,90,-164,-2.80303687166923,3.8824019438143
2.5,90,-163.9,-2.80580394061298,3.87808315328499
2.5,90,-163.8,-2.80859142541958,3.87374400533457
2.5,90,-163.7,-2.811399940752,3.86938335122906
2.5,90,-163.6,-2.81423022364947,3.86500003341711
2.5,90,-163.5,-2.81708313977191,3.86059290248452
2.5,90,-163.4,-2.81995968762523,3.85616083365984
2.5,90,-163.3,-2.82286100067761,3.85170274269216
2.5,90,-163.2,-2.82578834730443,3.8472176009305
2.5,90,-163.1,-2.82874312852827,3.8427044494451
2.5,90,-163,-2.8317268735491,3.83816241204269
2.5,90,-162.9,-2.83474123308861,3.83359070704151
2.5,90,-162.8,-2.83778797060138,3.82898865768688
2.5,90,-162.7,-2.84086895143343,3.82435570110434
2.5,90,-162.6,-2.84398613003542,3.81969139570431
2.5,90,-162.5,-2.84714153536348,3.81499542697066
2.5,90,-162.4,-2.85033725462427,3.81026761158359
2.5,90,-162.3,-2.85357541554309,3.80550789984655
2.5,90,-162.2,-2.85685816735301,3.80071637640604
2.5,90,-162.1,-2.86018766072077,3.79589325927202
2.5,90,-162,-2.86356602683932,3.79103889716567
2.5,90,-161.9,-2.8669953559288,3.78615376523966
2.5,90,-161.8,-2.87047767539652,3.7812384592337
2.5,90,-161.7,-2.8740149279122,3.77629368814525
2.5,90,-161.6,-2.8776089496572,3.77132026551093
2.5,90,-161.5,-2.88126144900623,3.76631909940915
2.5,90,-161.4,-2.88497398589604,3.76129118130774
2.5,90,-161.3,-2.88874795212913,3.7562375738923
2.5,90,-161.2,-2.89258455285073,3.75115939802128
2.5,90,-161.1,-2.89648478942464,3.74605781896276
2.5,90,-161,-2.90044944391866,3.74093403207436
2.5,90,-160.9,-2.90447906539219,3.7357892480932
2.5,90,-160.8,-2.90857395815893,3.73062467820595
2.5,90,-160.7,-2.91273417217539,3.72544151907015
2.5,90,-160.6,-2.91695949568236,3.72024093795785
2.5,90,-160.5,-2.92124945020102,3.71502405818991
2.5,90,-160.4,-2.92560328795909,3.70979194502521
2.5,90,-160.3,-2.9300199917953,3.70454559216331
2.5,90,-160.2,-2.9344982775623,3.69928590901096
2.5,90,-160.1,-2.93903659902065,3.69401370885426
2.5,90,-160,-2.94363315518826,3.68872969806712
2.5,90,-159.9,-2.9482859000825,3.68343446647506
2.5,90,-159.8,-2.95299255476554,3.67812847897971
2.5,90,-159.7,-2.95775062157784,3.67281206853578
2.5,90,-159.6,-2.96255740042071,3.66748543055633
2.5,90,-159.5,-2.96741000692617,3.66214861880705
2.5,90,-159.4,-2.97230539233181,3.65680154283337
2.5,90,-159.3,-2.97724036485982,3.65144396694755
2.5,90,-159.2,-2.98221161238307,3.64607551078616
2.5,90,-159.1,-2.98721572614759,3.64069565143105
2.5,90,-159,-2.99224922530968,3.63530372707043
2.5,90,-158.9,-2.99730858203752,3.62989894215999
2.5,90,-158.8,-3.00239024692169,3.62448037402836
2.5,90,-158.7,-3.00749067443661,3.61904698085568
2.5,90,-158.6,-3.01260634819484,3.61359761093988
2.5,90,-158.5,-3.01773380573973,3.60813101315176
2.5,90,-158.4,-3.02286966262757,3.60264584846776
2.5,90,-158.3,-3.02801063555925,3.59714070245814
2.5,90,-158.2,-3.03315356433271,3.59161409859866
2.5,90,-158.1,-3.03829543240122,3.58606451226559
2.5,90,-158,-3.04343338583861,3.58049038526704
2.5,90,-157.9,-3.04856475053062,3.57489014075845
2.5,90,-157.8,-3.05368704743176,3.56926219838643
2.5,90,-157.7,-3.05879800574861,3.56360498950326
2.5,90,-157.6,-3.06389557393349,3.55791697229383
2.5,90,-157.5,-3.06897792839671,3.55219664665842
2.5,90,-157.4,-3.07404347987059,3.54644256869734
2.5,90,-157.3,-3.07909087738381,3.54065336464791
2.5,90,-157.2,-3.08411900983077,3.53482774413052
2.5,90,-157.1,-3.08912700514605,3.52896451256758
2.5,90,-157,-3.09411422711977,3.52306258264797
2.5,90,-156.9,-3.0990802699145,3.51712098471987
2.5,90,-156.8,-3.10402495036811,3.51113887600545
2.5,90,-156.7,-3.1089482981902,3.50511554854354
2.5,90,-156.6,-3.11385054418081,3.49905043577911
2.5,90,-156.5,-3.1187321066205,3.4929431177322
2.5,90,-156.4,-3.12359357599849,3.48679332469337
2.5,90,-156.3,-3.12843569826207,3.48060093940748
2.5,90,-156.2,-3.1332593567842,3.47436599772273
2.5,90,-156.1,-3.13806555325811,3.46808868769725
2.5,90,-156,-3.14285538773684,3.46176934717054
2.5,90,-155.9,-3.1476300380427,3.4554084598225
2.5,90,-155.8,-3.15239073877576,3.4490066497573
2.5,90,-155.7,-3.1571387601525,3.44256467466385
2.5,90,-155.6,-3.16187538690486,3.43608341761832
2.5,90,-155.5,-3.16660189746673,3.42956387760724
2.5,90,-155.4,-3.17131954366929,3.42300715886207
2.5,90,-155.3,-3.17602953115856,3.41641445910701
2.5,90,-155.2,-3.18073300073831,3.40978705683256
2.5,90,-155.1,-3.18543101082894,3.40312629771601
2.5,90,-155,-3.190124521219,3.39643358031807
2.5,90,-154.9,-3.19481437826938,3.38971034119153
2.5,90,-154.8,-3.19950130171325,3.38295803954272
2.5,90,-154.7,-3.20418587317504,3.37617814159099
2.5,90,-154.6,-3.2088685265122,3.36937210477329
2.5,90,-154.5,-3.21354954006218,3.36254136194237
2.5,90,-154.4,-3.21822903085503,3.35568730570669
2.5,90,-154.3,-3.22290695083042,3.3488112730583
2.5,90,-154.2,-3.22758308507489,3.34191453043193
2.5,90,-154.1,-3.2322570520733,3.33499825933399
2.5,90,-154,-3.23692830594616,3.32806354267472
2.5,90,-153.9,-3.24159614062307,3.32111135192946
2.5,90,-153.8,-3.24625969588196,3.31414253524729
2.5,90,-153.7,-3.25091796516379,3.30715780661608
2.5,90,-153.6,-3.25556980505417,3.30015773618302
2.5,90,-153.5,-3.26021394630574,3.29314274181867
2.5,90,-153.4,-3.26484900625991,3.28611308200134
2.5,90,-153.3,-3.26947350251233,3.27906885008595
2.5,90,-153.2,-3.27408586765432,3.27200997000902
2.5,90,-153.1,-3.27868446491259,3.26493619346844
2.5,90,-153,-3.2832676045008,3.25784709860306
2.5,90,-152.9,-3.28783356049117,3.25074209018378
2.5,90,-152.8,-3.29238058800951,3.2436204013144
2.5,90,-152.7,-3.29690694055616,3.23648109662691
2.5,90,-152.6,-3.30141088725467,3.22932307694301
2.5,90,-152.5,-3.30589072983331,3.22214508536066
2.5,90,-152.4,-3.31034481914856,3.21494571471216
2.5,90,-152.3,-3.31477157106625,3.20772341632882
2.5,90,-152.2,-3.31916948152464,3.20047651003567
2.5,90,-152.1,-3.32353714061372,3.19320319528993
2.5,90,-152,-3.32787324551703,3.18590156336711
2.5,90,-151.9,-3.33217661217567,3.17856961049028
2.5,90,-151.8,-3.33644618554886,3.17120525179048
2.5,90,-151.7,-3.34068104836152,3.16380633597976
2.5,90,-151.6,-3.34488042824629,3.15637066061293
2.5,90,-151.5,-3.3490437032051,3.14889598780992
2.5,90,-151.4,-3.35317040533409,3.14138006030742
2.5,90,-151.3,-3.35726022277434,3.13382061770676
2.5,90,-151.2,-3.36131299987017,3.1262154127839
2.5,90,-151.1,-3.36532873553578,3.11856222772823
2.5,90,-151,-3.36930757985002,3.1108588901781
2.5,90,-150.9,-3.37324982891774,3.10310328892373
2.5,90,-150.8,-3.37715591805424,3.09529338915218
2.5,90,-150.7,-3.38102641336651,3.08742724711349
2.5,90,-150.6,-3.3848620018215,3.07950302409317
2.5,90,-150.5,-3.38866347990712,3.0715189995828
2.5,90,-150.4,-3.39243174100542,3.06347358354809
2.5,90,-150.3,-3.39616776161072,3.05536532770215
2.5,90,-150.2,-3.39987258653632,3.04719293570061
2.5,90,-150.1,-3.40354731326348,3.03895527218511
2.5,90,-150,-3.40719307559442,3.03065137061158
2.5,90,-149.9,-3.4108110267774,3.02228043981055
2.5,90,-149.8,-3.41440232227681,3.01384186923749
2.5,90,-149.7,-3.41796810236384,3.00533523288245
2.5,90,-149.6,-3.42150947470459,2.99676029181946
2.5,90,-149.5,-3.42502749712163,2.98811699538749
2.5,90,-149.4,-3.42852316070259,2.9794054810061
2.5,90,-149.3,-3.43199737342529,2.97062607264
2.5,90,-149.2,-3.43545094446282,2.9617792779374
2.5,90,-149.1,-3.43888456932491,2.95286578407795
2.5,90,-149,-3.44229881598263,2.94388645237578
2.5,90,-148.9,-3.44569411211361,2.93484231169297
2.5,90,-148.8,-3.44907073359284,2.92573455072781
2.5,90,-148.7,-3.4524287943421,2.9165645092505
2.5,90,-148.6,-3.45576823763664,2.90733366836684
2.5,90,-148.5,-3.45908882895382,2.89804363989705
2.5,90,-148.4,-3.46239015043259,2.88869615496343
2.5,90,-148.3,-3.46567159699744,2.87929305188559
2.5,90,-148.2,-3.46893237418362,2.86983626348639
2.5,90,-148.1,-3.47217149768466,2.86032780391549
2.5,90,-148,-3.47538779462623,2.85076975509973
2.5,90,-147.9,-3.47857990655423,2.84116425293149
2.5,90,-147.8,-3.48174629410888,2.83151347330688
2.5,90,-147.7,-3.48488524334076,2.82181961812527
2.5,90,-147.6,-3.48799487360961,2.81208490136098
2.5,90,-147.5,-3.49107314699238,2.80231153531571
2.5,90,-147.4,-3.49411787911314,2.79250171715758
2.5,90,-147.3,-3.49712675129482,2.78265761584927
2.5,90,-147.2,-3.50009732392139,2.77278135956292
2.5,90,-147.1,-3.50302705088814,2.76287502367492
2.5,90,-147,-3.50591329500883,2.75294061942734
2.5,90,-146.9,-3.50875334424036,2.74298008333685
2.5,90,-146.8,-3.5115444285792,2.73299526742479
2.5,90,-146.7,-3.51428373747849,2.72298793033447
2.5,90,-146.6,-3.51696843763109,2.71295972939422
2.5,90,-146.5,-3.51959569096182,2.7029122136762
2.5,90,-146.4,-3.52216267267102,2.69284681809249
2.5,90,-146.3,-3.52466658917251,2.68276485856139
2.5,90,-146.2,-3.52710469577108,2.67266752826778
2.5,90,-146.1,-3.52947431392813,2.66255589503252
2.5,90,-146,-3.53177284796904,2.65243089979689
2.5,90,-145.9,-3.53399780109184,2.64229335621927
2.5,90,-145.8,-3.53614679054429,2.63214395137237
2.5,90,-145.7,-3.53821756184479,2.62198324752083
2.5,90,-145.6,-3.54020800193228,2.61181168495095
2.5,90,-145.5,-3.54211615114046,2.60162958581594
2.5,90,-145.4,-3.54394021390322,2.59143715895315
2.5,90,-145.3,-3.54567856810995,2.58123450562198
2.5,90,-145.2,-3.54732977304213,2.57102162610509
2.5,90,-145.1,-3.54889257583555,2.5607984271093
2.5,90,-145,-3.55036591642605,2.55056472989682
2.5,90,-144.9,-3.55174893095015,2.54032027907307
2.5,90,-144.8,-3.55304095358573,2.53006475195262
2.5,90,-144.7,-3.55424151683175,2.51979776842147
2.5,90,-144.6,-3.55535035023927,2.50951890121095
2.5,90,-144.5,-3.55636737761955,2.49922768649607
2.5,90,-144.4,-3.55729271276785,2.48892363473008
2.5,90,-144.3,-3.5581266537539,2.47860624162569
2.5,90,-144.2,-3.55886967584178,2.4682749991935
2.5,90,-144.1,-3.55952242311332,2.45792940674884
2.5,90,-144,-3.56008569887912,2.44756898179918
2.5,90,-143.9,-3.56056045497093,2.43719327072637
2.5,90,-143.8,-3.56094778001788,2.42680185918024
2.5,90,-143.7,-3.56124888681611,2.41639438210356
2.5,90,-143.6,-3.56146509890842,2.40597053331143
2.5,90,-143.5,-3.56159783649561,2.39553007455303
2.5,90,-143.4,-3.56164860180554,2.38507284398778
2.5,90,-143.3,-3.56161896404941,2.37459876401347
2.5,90,-143.2,-3.56151054409626,2.36410784838921
2.5,90,-143.1,-3.56132499899815,2.35360020860204
2.5,90,-143,-3.56106400649788,2.34307605943228
2.5,90,-142.9,-3.56072924964961,2.33253572367908
2.5,90,-142.8,-3.56032240168088,2.32197963601425
2.5,90,-142.7,-3.55984511122026,2.31140834593944
2.5,90,-142.6,-3.55929898801094,2.30082251982842
2.5,90,-142.5,-3.55868558922479,2.29022294204341
2.5,90,-142.4,-3.55800640648526,2.27961051512117
2.5,90,-142.3,-3.55726285370018,2.26898625903168
2.5,90,-142.2,-3.55645625579764,2.2583513095188
2.5,90,-142.1,-3.55558783844972,2.24770691553918
2.5,90,-142,-3.55465871885937,2.23705443582218
2.5,90,-141.9,-3.55366989767653,2.22639533457945
2.5,90,-141.8,-3.5526222520989,2.21573117639923
2.5,90,-141.7,-3.55151653020312,2.20506362036574
2.5,90,-141.6,-3.55035334654093,2.19439441344944
2.5,90,-141.5,-3.54913317902451,2.18372538321877
2.5,90,-141.4,-3.5478563671142,2.17305842992851
2.5,90,-141.3,-3.54652311131133,2.16239551804391
2.5,90,-141.2,-3.54513347394811,2.15173866726328
2.5,90,-141.1,-3.54368738125622,2.14108994310494
2.5,90,-141,-3.54218462668591,2.13045144712677
2.5,90,-140.9,-3.54062487543736,2.11982530684903
2.5,90,-140.8,-3.53900767015727,2.10921366545233
2.5,90,-140.7,-3.53733243774473,2.09861867132405
2.5,90,-140.6,-3.53559849720243,2.08804246752664
2.5,90,-140.5,-3.5338050684617,2.07748718126156
2.5,90,-140.4,-3.53195128210333,2.06695491340208
2.5,90,-140.3,-3.53003618988997,2.05644772816685
2.5,90,-140.2,-3.52805877602065,2.04596764300533
2.5,90,-140.1,-3.52601796901355,2.03551661876332
2.5,90,-140,-3.52391265411962,2.02509655019541
2.5,90,-139.9,-3.52174168616669,2.01470925688748
